! Port assignments
!    /_/_/
!      |
!    [o  ] 3
!  1 [o  ] 2
!     _|_
!    / / /
!
! Measurement condition
!  Operating Temperature = 25 Cel
!  DC Bias Current = 0 A
!
! TDK Corporation
!
# MHz S MA R 50
5.00000000000E+02	  9.67249392209E-01	 -1.05729489000E+02	  8.21840118913E-02	 -7.30728050000E+01	  1.61680069917E-01	  1.01017938000E+02
	  8.13702183840E-02	 -7.34881470000E+01	  9.68393979586E-01	  1.34217380000E+02	  5.99315285807E-02	  4.83347130000E+01
	  1.60151924004E-01	  1.00802545000E+02	  6.00390873236E-02	  4.85475870000E+01	  9.58541192857E-01	  1.30463490000E+02
5.10000000000E+02	  9.65296160932E-01	 -1.07547544000E+02	  8.52569281441E-02	 -7.44556360000E+01	  1.66925832418E-01	  9.96521730000E+01
	  8.45971783518E-02	 -7.48982440000E+01	  9.67743325161E-01	  1.33286438000E+02	  6.04219159672E-02	  4.79227060000E+01
	  1.65802227773E-01	  9.93983960000E+01	  6.05366109309E-02	  4.81244080000E+01	  9.57177178489E-01	  1.29476486000E+02
5.20000000000E+02	  9.63425469644E-01	 -1.09374036000E+02	  8.84038827595E-02	 -7.57931210000E+01	  1.72433155045E-01	  9.83586260000E+01
	  8.78576909668E-02	 -7.63541130000E+01	  9.67131045932E-01	  1.32365222000E+02	  6.09064762442E-02	  4.74727060000E+01
	  1.71329603970E-01	  9.79166020000E+01	  6.09998770712E-02	  4.76556530000E+01	  9.56042743404E-01	  1.28486622000E+02
5.30000000000E+02	  9.61252753903E-01	 -1.11151826000E+02	  9.17946274272E-02	 -7.71121080000E+01	  1.78230904295E-01	  9.70665180000E+01
	  9.10137724755E-02	 -7.77740270000E+01	  9.66985792990E-01	  1.31430673000E+02	  6.13473768061E-02	  4.70429340000E+01
	  1.76733165604E-01	  9.64996850000E+01	  6.14844579744E-02	  4.72506480000E+01	  9.54885079778E-01	  1.27479999000E+02
5.40000000000E+02	  9.58548590406E-01	 -1.12955349000E+02	  9.52884262891E-02	 -7.85082380000E+01	  1.84208926037E-01	  9.56235070000E+01
	  9.42081530365E-02	 -7.91600320000E+01	  9.66385647958E-01	  1.30498598000E+02	  6.17268542625E-02	  4.66061320000E+01
	  1.82032134820E-01	  9.51291910000E+01	  6.18639190078E-02	  4.68352960000E+01	  9.53645733699E-01	  1.26421536000E+02
5.50000000000E+02	  9.55720680783E-01	 -1.14788711000E+02	  9.87888482204E-02	 -7.99417630000E+01	  1.90056341994E-01	  9.41751570000E+01
	  9.75065222666E-02	 -8.04807370000E+01	  9.65343709597E-01	  1.29575310000E+02	  6.20714802138E-02	  4.62978100000E+01
	  1.87467322847E-01	  9.38285380000E+01	  6.21780868846E-02	  4.64726560000E+01	  9.52263578747E-01	  1.25404738000E+02
5.60000000000E+02	  9.53044137068E-01	 -1.16626801000E+02	  1.02234811387E-01	 -8.13538060000E+01	  1.95699910077E-01	  9.27279850000E+01
	  1.00954731782E-01	 -8.17870340000E+01	  9.65012526084E-01	  1.28672528000E+02	  6.24234220359E-02	  4.59749800000E+01
	  1.93219946178E-01	  9.25008950000E+01	  6.25279804811E-02	  4.61825060000E+01	  9.50879878766E-01	  1.24354372000E+02
5.70000000000E+02	  9.51699465368E-01	 -1.18445623000E+02	  1.05691917189E-01	 -8.27497520000E+01	  2.01311022386E-01	  9.13414810000E+01
	  1.04622588524E-01	 -8.31496610000E+01	  9.64372990288E-01	  1.27747415000E+02	  6.27512119650E-02	  4.56769860000E+01
	  1.99338908172E-01	  9.11108550000E+01	  6.29035379856E-02	  4.58944320000E+01	  9.49446055770E-01	  1.23332693000E+02
5.80000000000E+02	  9.50048119060E-01	 -1.20238798000E+02	  1.09327491488E-01	 -8.41222630000E+01	  2.07113086653E-01	  8.99638270000E+01
	  1.08276011627E-01	 -8.45675970000E+01	  9.64431550812E-01	  1.26807422000E+02	  6.31385718258E-02	  4.54004260000E+01
	  2.05227534362E-01	  8.96833780000E+01	  6.32777532179E-02	  4.55981570000E+01	  9.48311907387E-01	  1.22280095000E+02
5.90000000000E+02	  9.48508178476E-01	 -1.22025355000E+02	  1.13073258575E-01	 -8.54778390000E+01	  2.13107109013E-01	  8.86351400000E+01
	  1.11929718338E-01	 -8.59650360000E+01	  9.64417110245E-01	  1.25889548000E+02	  6.34456452755E-02	  4.51240830000E+01
	  2.10976566493E-01	  8.82819850000E+01	  6.35899854654E-02	  4.53233590000E+01	  9.47499830107E-01	  1.21286451000E+02
6.00000000000E+02	  9.46819506242E-01	 -1.23822482000E+02	  1.16837480093E-01	 -8.68527680000E+01	  2.19101669977E-01	  8.72757400000E+01
	  1.15559317534E-01	 -8.73887190000E+01	  9.63774225813E-01	  1.24958159000E+02	  6.36966260928E-02	  4.48932540000E+01
	  2.16650078944E-01	  8.68929130000E+01	  6.38308484141E-02	  4.50732160000E+01	  9.45960280019E-01	  1.20282722000E+02
6.10000000000E+02	  9.44660281281E-01	 -1.25587527000E+02	  1.20594799701E-01	 -8.82575290000E+01	  2.24992529183E-01	  8.58606640000E+01
	  1.19236145477E-01	 -8.87501530000E+01	  9.62910587187E-01	  1.23996823000E+02	  6.39116641538E-02	  4.46812100000E+01
	  2.22397255548E-01	  8.55692230000E+01	  6.40631907100E-02	  4.48676490000E+01	  9.44339939904E-01	  1.19234352000E+02
6.20000000000E+02	  9.42292630651E-01	 -1.27304058000E+02	  1.24355410772E-01	 -8.96641440000E+01	  2.30741074195E-01	  8.44641390000E+01
	  1.23013094745E-01	 -9.00990990000E+01	  9.62034845297E-01	  1.23077311000E+02	  6.41149114691E-02	  4.44922050000E+01
	  2.28348294188E-01	  8.42285510000E+01	  6.42521937900E-02	  4.47389370000E+01	  9.42489910430E-01	  1.18251355000E+02
6.30000000000E+02	  9.39486686285E-01	 -1.29024771000E+02	  1.28174761035E-01	 -9.09945430000E+01	  2.36686400490E-01	  8.31294440000E+01
	  1.26786010501E-01	 -9.14834760000E+01	  9.61300032887E-01	  1.22110148000E+02	  6.43318860106E-02	  4.43514420000E+01
	  2.34210845915E-01	  8.28674150000E+01	  6.44904841681E-02	  4.45939000000E+01	  9.41144850356E-01	  1.17226920000E+02
6.40000000000E+02	  9.36173495567E-01	 -1.30744597000E+02	  1.32124264993E-01	 -9.23286960000E+01	  2.42677449694E-01	  8.18009100000E+01
	  1.30515560470E-01	 -9.28069590000E+01	  9.61092145571E-01	  1.21158283000E+02	  6.45302024316E-02	  4.42418370000E+01
	  2.40020341656E-01	  8.15129370000E+01	  6.47305278366E-02	  4.44800990000E+01	  9.39194646726E-01	  1.16226131000E+02
6.50000000000E+02	  9.33323111068E-01	 -1.32482056000E+02	  1.36110997601E-01	 -9.37453260000E+01	  2.48933895860E-01	  8.04512800000E+01
	  1.34412546823E-01	 -9.41587100000E+01	  9.60281694754E-01	  1.20213121000E+02	  6.47119916563E-02	  4.41789260000E+01
	  2.45769895639E-01	  8.01455410000E+01	  6.49062456074E-02	  4.44216860000E+01	  9.37470585482E-01	  1.15200227000E+02
6.60000000000E+02	  9.30359619291E-01	 -1.34202244000E+02	  1.40279976325E-01	 -9.51226640000E+01	  2.55169386824E-01	  7.90411240000E+01
	  1.38324351275E-01	 -9.54816220000E+01	  9.60255652194E-01	  1.19270525000E+02	  6.49436420988E-02	  4.41618770000E+01
	  2.51742464259E-01	  7.88695610000E+01	  6.51481585584E-02	  4.44066680000E+01	  9.36098290095E-01	  1.14190480000E+02
6.70000000000E+02	  9.27115214266E-01	 -1.35912419000E+02	  1.44275723688E-01	 -9.64559600000E+01	  2.61161895527E-01	  7.76550350000E+01
	  1.42375805676E-01	 -9.67903430000E+01	  9.59561377044E-01	  1.18331010000E+02	  6.51813329032E-02	  4.41980669999E+01
	  2.57805746836E-01	  7.75808590000E+01	  6.53879120979E-02	  4.44224000000E+01	  9.34367873973E-01	  1.13151096000E+02
6.80000000000E+02	  9.24487003740E-01	 -1.37616566000E+02	  1.48276454465E-01	 -9.78007870000E+01	  2.67076172380E-01	  7.63250170000E+01
	  1.46576421654E-01	 -9.81443700000E+01	  9.58784911179E-01	  1.17393985000E+02	  6.54156337413E-02	  4.42064510000E+01
	  2.64072102427E-01	  7.62195230000E+01	  6.56009067780E-02	  4.44430660000E+01	  9.32891477319E-01	  1.12095741000E+02
6.90000000000E+02	  9.21821902369E-01	 -1.39301476000E+02	  1.52369494647E-01	 -9.91029520000E+01	  2.72960136545E-01	  7.50595210000E+01
	  1.50666274379E-01	 -9.95301370000E+01	  9.58200366097E-01	  1.16452857000E+02	  6.55989228521E-02	  4.42284960000E+01
	  2.70210346981E-01	  7.48134010000E+01	  6.58045716830E-02	  4.44703430000E+01	  9.30753373623E-01	  1.11016353000E+02
7.00000000000E+02	  9.19606248776E-01	 -1.40960981000E+02	  1.56617321254E-01	 -1.00418802000E+02	  2.79232505876E-01	  7.37365370000E+01
	  1.54729727718E-01	 -1.00915934000E+02	  9.56866367776E-01	  1.15488841000E+02	  6.57399755142E-02	  4.42333970000E+01
	  2.76045791870E-01	  7.34068900000E+01	  6.59028746328E-02	  4.45074280000E+01	  9.28833465719E-01	  1.09917594000E+02
7.10000000000E+02	  9.17071801627E-01	 -1.42558141000E+02	  1.61011308240E-01	 -1.01764481000E+02	  2.85732038657E-01	  7.24041560000E+01
	  1.58814810783E-01	 -1.02241166000E+02	  9.56049702951E-01	  1.14529854000E+02	  6.58104038658E-02	  4.43184290000E+01
	  2.81726002034E-01	  7.20749300000E+01	  6.60079562564E-02	  4.45889500000E+01	  9.26797692778E-01	  1.08796968000E+02
7.20000000000E+02	  9.14546001083E-01	 -1.44171106000E+02	  1.65435645192E-01	 -1.03128570000E+02	  2.92090961345E-01	  7.09933660000E+01
	  1.63004490517E-01	 -1.03513350000E+02	  9.55484527339E-01	  1.13574468000E+02	  6.59446886326E-02	  4.45696700000E+01
	  2.87616699724E-01	  7.08017050000E+01	  6.61412587426E-02	  4.48138840000E+01	  9.25066066705E-01	  1.07733275000E+02
7.30000000000E+02	  9.11808744745E-01	 -1.45761619000E+02	  1.69833181840E-01	 -1.04521562000E+02	  2.98093985163E-01	  6.95860080000E+01
	  1.67433717318E-01	 -1.04789081000E+02	  9.54518194348E-01	  1.12625479000E+02	  6.61049928474E-02	  4.48653460000E+01
	  2.93907403541E-01	  6.95359350000E+01	  6.63658263581E-02	  4.50786560000E+01	  9.22943075230E-01	  1.06635194000E+02
7.40000000000E+02	  9.08256327701E-01	 -1.47339331000E+02	  1.74233434688E-01	 -1.05868385000E+02	  3.03930335206E-01	  6.82263590000E+01
	  1.72010123297E-01	 -1.06079239000E+02	  9.53704806735E-01	  1.11641239000E+02	  6.64028322601E-02	  4.51186760000E+01
	  3.00280517882E-01	  6.82270779999E+01	  6.66076377548E-02	  4.53439230000E+01	  9.20941022246E-01	  1.05547422000E+02
7.50000000000E+02	  9.04519628621E-01	 -1.48907439000E+02	  1.78762837318E-01	 -1.07192212000E+02	  3.10040856151E-01	  6.69537030001E+01
	  1.76640303245E-01	 -1.07440542000E+02	  9.53182953057E-01	  1.10670972000E+02	  6.67201560951E-02	  4.53851470000E+01
	  3.06672531184E-01	  6.68625410000E+01	  6.69322056087E-02	  4.55890770000E+01	  9.19151045061E-01	  1.04482229000E+02
7.60000000000E+02	  9.00203116717E-01	 -1.50488842000E+02	  1.83387680205E-01	 -1.08468707000E+02	  3.16358455706E-01	  6.57016670000E+01
	  1.81090580440E-01	 -1.08792030000E+02	  9.52215654415E-01	  1.09712590000E+02	  6.69717244517E-02	  4.56697130000E+01
	  3.12596228393E-01	  6.55077900000E+01	  6.71970502610E-02	  4.58795039999E+01	  9.16986320995E-01	  1.03425876000E+02
7.70000000000E+02	  8.96038182982E-01	 -1.52088685000E+02	  1.88082382765E-01	 -1.09789582000E+02	  3.22885904634E-01	  6.44186480001E+01
	  1.85509948240E-01	 -1.10121850000E+02	  9.50524242637E-01	  1.08754552000E+02	  6.71647054350E-02	  4.60124070000E+01
	  3.18451692290E-01	  6.41944070000E+01	  6.73910552028E-02	  4.62589910000E+01	  9.14531570770E-01	  1.02354709000E+02
7.80000000000E+02	  8.92318077698E-01	 -1.53715903000E+02	  1.92820799969E-01	 -1.11136361000E+02	  3.29335377492E-01	  6.30490840001E+01
	  1.90063959556E-01	 -1.11445173000E+02	  9.49187087091E-01	  1.07778763000E+02	  6.74120887980E-02	  4.64520190000E+01
	  3.24396718114E-01	  6.29057509999E+01	  6.76374074857E-02	  4.66910870000E+01	  9.11723012455E-01	  1.01293273000E+02
7.90000000000E+02	  8.88075807607E-01	 -1.55302785000E+02	  1.97579872142E-01	 -1.12482329000E+02	  3.35608520480E-01	  6.16725130000E+01
	  1.94643135768E-01	 -1.12718642000E+02	  9.47801339612E-01	  1.06805901000E+02	  6.77508445649E-02	  4.69741880000E+01
	  3.30570911605E-01	  6.16454360000E+01	  6.80117971896E-02	  4.72087240000E+01	  9.09048855481E-01	  1.00199889000E+02
8.00000000000E+02	  8.84255122953E-01	 -1.56905570000E+02	  2.02352215876E-01	 -1.13826649000E+02	  3.41755846417E-01	  6.03418040001E+01
	  1.99375248572E-01	 -1.14025124000E+02	  9.46793865528E-01	  1.05856521000E+02	  6.82255657314E-02	  4.74894840000E+01
	  3.36922352587E-01	  6.03362600000E+01	  6.84610723914E-02	  4.77009800000E+01	  9.06683309155E-01	  9.91537690000E+01
8.10000000000E+02	  8.80956986496E-01	 -1.58477802000E+02	  2.07131594467E-01	 -1.15159274000E+02	  3.47934217230E-01	  5.90499250001E+01
	  2.04294007757E-01	 -1.15359046000E+02	  9.45560770737E-01	  1.04857958000E+02	  6.87179281050E-02	  4.79888530000E+01
	  3.43389796114E-01	  5.89897149999E+01	  6.89922043625E-02	  4.81888140000E+01	  9.04217448451E-01	  9.80592790000E+01
8.20000000000E+02	  8.77593135289E-01	 -1.60021250000E+02	  2.12055431573E-01	 -1.16479705000E+02	  3.54191178886E-01	  5.77399350000E+01
	  2.09286718990E-01	 -1.16696404000E+02	  9.44766550474E-01	  1.03870988000E+02	  6.92565806589E-02	  4.84766290000E+01
	  3.49690235657E-01	  5.76372010000E+01	  6.94922374780E-02	  4.86748720000E+01	  9.01940259287E-01	  9.69411300000E+01
8.30000000000E+02	  8.74526141810E-01	 -1.61532238000E+02	  2.17066493151E-01	 -1.17805927000E+02	  3.60685982373E-01	  5.64088719999E+01
	  2.14279885956E-01	 -1.18029083000E+02	  9.43679933336E-01	  1.02858965000E+02	  6.98448292808E-02	  4.89858510000E+01
	  3.55974268523E-01	  5.63092480001E+01	  7.00938886785E-02	  4.92006200000E+01	  8.99533134365E-01	  9.57911310000E+01
8.40000000000E+02	  8.70172271788E-01	 -1.63027792000E+02	  2.22149613653E-01	 -1.19115712000E+02	  3.67107357499E-01	  5.50817929999E+01
	  2.19209797618E-01	 -1.19358501000E+02	  9.42316725596E-01	  1.01874985000E+02	  7.04922751544E-02	  4.95679930000E+01
	  3.62048709136E-01	  5.50125660000E+01	  7.07148801894E-02	  4.97857400000E+01	  8.97041107957E-01	  9.46967790000E+01
8.50000000000E+02	  8.66265375460E-01	 -1.64539906000E+02	  2.27290979704E-01	 -1.20421812000E+02	  3.73428571574E-01	  5.37790260000E+01
	  2.24200968902E-01	 -1.20680235000E+02	  9.40781113643E-01	  1.00878997000E+02	  7.11764835345E-02	  5.01742050000E+01
	  3.68349717455E-01	  5.37108210001E+01	  7.14195984340E-02	  5.04056370000E+01	  8.94265470038E-01	  9.35729030000E+01
8.60000000000E+02	  8.61413050928E-01	 -1.66035456000E+02	  2.32513315650E-01	 -1.21757834000E+02	  3.79719003476E-01	  5.24770860000E+01
	  2.29265845929E-01	 -1.21990914000E+02	  9.38971290486E-01	  9.98767570000E+01	  7.19316075297E-02	  5.07338860000E+01
	  3.74666475877E-01	  5.24028439999E+01	  7.22166166684E-02	  5.09694270000E+01	  8.91432991998E-01	  9.24629340000E+01
8.70000000000E+02	  8.56373656607E-01	 -1.67551385000E+02	  2.37832707656E-01	 -1.23117118000E+02	  3.86269500564E-01	  5.11507540000E+01
	  2.34377862166E-01	 -1.23295514000E+02	  9.37508384045E-01	  9.88380350000E+01	  7.27438046549E-02	  5.13272000000E+01
	  3.80872709102E-01	  5.10937670000E+01	  7.30237063889E-02	  5.15646400000E+01	  8.88569506786E-01	  9.13372080000E+01
8.80000000000E+02	  8.50851353685E-01	 -1.69080616000E+02	  2.43174511103E-01	 -1.24480191000E+02	  3.92873712508E-01	  4.98052480000E+01
	  2.39550589876E-01	 -1.24591058000E+02	  9.36030866258E-01	  9.78247300000E+01	  7.36346474058E-02	  5.20031290000E+01
	  3.86908746342E-01	  4.97928050000E+01	  7.39277887225E-02	  5.22091210000E+01	  8.85379723761E-01	  9.02220620000E+01
8.90000000000E+02	  8.45197930060E-01	 -1.70609442000E+02	  2.48381504697E-01	 -1.25834592000E+02	  3.99062662013E-01	  4.84626159999E+01
	  2.44749772101E-01	 -1.25917543000E+02	  9.34347977866E-01	  9.67774750000E+01	  7.46762248746E-02	  5.26890440000E+01
	  3.92951219985E-01	  4.84993070000E+01	  7.49948695791E-02	  5.28839950000E+01	  8.82172971368E-01	  8.91022400000E+01
9.00000000000E+02	  8.40147741038E-01	 -1.72162248000E+02	  2.53598867251E-01	 -1.27225222000E+02	  4.05220362646E-01	  4.70679500000E+01
	  2.50157032650E-01	 -1.27282346000E+02	  9.32019192008E-01	  9.57254360000E+01	  7.59123686301E-02	  5.33055080000E+01
	  3.99395798037E-01	  4.71682640000E+01	  7.61738255019E-02	  5.34658660000E+01	  8.79047621250E-01	  8.79612540000E+01
9.10000000000E+02	  8.35462090422E-01	 -1.73677800000E+02	  2.58943416840E-01	 -1.28566439000E+02	  4.11245226734E-01	  4.57353980000E+01
	  2.55549829034E-01	 -1.28650580000E+02	  9.30390609535E-01	  9.46488450000E+01	  7.72148488657E-02	  5.38134720000E+01
	  4.05869832683E-01	  4.58394680000E+01	  7.74835164133E-02	  5.40226980000E+01	  8.75813300040E-01	  8.68102560000E+01
9.20000000000E+02	  8.30920573335E-01	 -1.75180021000E+02	  2.64388789088E-01	 -1.29878931000E+02	  4.17478088743E-01	  4.44521550000E+01
	  2.60811009869E-01	 -1.30000796000E+02	  9.28858319469E-01	  9.36177570000E+01	  7.85476339093E-02	  5.43140350000E+01
	  4.12181422165E-01	  4.44993460000E+01	  7.88000507807E-02	  5.45449420000E+01	  8.72845278406E-01	  8.56637210000E+01
9.30000000000E+02	  8.26293650754E-01	 -1.76651681000E+02	  2.69748285585E-01	 -1.31203742000E+02	  4.23841542745E-01	  4.31799020000E+01
	  2.66035182737E-01	 -1.31360451000E+02	  9.26371635273E-01	  9.25802670000E+01	  7.98434647884E-02	  5.48146530000E+01
	  4.18162018241E-01	  4.31345650000E+01	  8.01030651525E-02	  5.50438250000E+01	  8.69655087974E-01	  8.45214310000E+01
9.40000000000E+02	  8.21492011844E-01	 -1.78110174000E+02	  2.75410197528E-01	 -1.32541170000E+02	  4.30350030728E-01	  4.18478199999E+01
	  2.71344321455E-01	 -1.32688199000E+02	  9.25001630868E-01	  9.15077540000E+01	  8.12081302952E-02	  5.53447360000E+01
	  4.24125979046E-01	  4.18079120000E+01	  8.15414155857E-02	  5.56020110000E+01	  8.66295369417E-01	  8.33282390000E+01
9.50000000000E+02	  8.16413850531E-01	 -1.79584608000E+02	  2.81008467821E-01	 -1.33890785000E+02	  4.36865324067E-01	  4.04850300000E+01
	  2.76852394071E-01	 -1.34009771000E+02	  9.22950055987E-01	  9.04209830000E+01	  8.27563868271E-02	  5.59473480000E+01
	  4.30252830743E-01	  4.04896980000E+01	  8.31317015581E-02	  5.61837570000E+01	  8.62859815468E-01	  8.21504510000E+01
9.60000000000E+02	  8.11159615499E-01	  1.79003430000E+02	  2.86668152631E-01	 -1.35244425000E+02	  4.43102141192E-01	  3.91065160000E+01
	  2.82455768187E-01	 -1.35293232000E+02	  9.20716381882E-01	  8.93245440000E+01	  8.45780118190E-02	  5.64651590000E+01
	  4.36513067879E-01	  3.92125770000E+01	  8.49707177250E-02	  5.66616660000E+01	  8.59819354328E-01	  8.09474760000E+01
9.70000000000E+02	  8.05155847131E-01	  1.77591276000E+02	  2.92285698768E-01	 -1.36616388000E+02	  4.48993066832E-01	  3.77633380000E+01
	  2.88222737091E-01	 -1.36624393000E+02	  9.18387888611E-01	  8.82364620000E+01	  8.65486531851E-02	  5.68713700000E+01
	  4.42923173934E-01	  3.78946320000E+01	  8.69250806517E-02	  5.70593400000E+01	  8.56059478776E-01	  7.97705990000E+01
9.80000000000E+02	  7.98966226894E-01	  1.76167233000E+02	  2.97857631363E-01	 -1.37972356000E+02	  4.54793625658E-01	  3.64488050001E+01
	  2.94058672231E-01	 -1.37999147000E+02	  9.15840749359E-01	  8.71237310000E+01	  8.85005028812E-02	  5.71887420000E+01
	  4.49190851562E-01	  3.65437430000E+01	  8.88534899270E-02	  5.73469730000E+01	  8.52238622598E-01	  7.85836880000E+01
9.90000000000E+02	  7.92639489320E-01	  1.74718929000E+02	  3.03639746014E-01	 -1.39308964000E+02	  4.61049298610E-01	  3.51523050000E+01
	  2.99667000470E-01	 -1.39367751000E+02	  9.13691563565E-01	  8.60113950000E+01	  9.04132208560E-02	  5.74667080000E+01
	  4.55048221878E-01	  3.51951070000E+01	  9.08102907352E-02	  5.76857550000E+01	  8.48658066950E-01	  7.74031330000E+01
1.00000000000E+03	  7.86411839866E-01	  1.73284176000E+02	  3.09334293177E-01	 -1.40674583000E+02	  4.67373459198E-01	  3.38326600000E+01
	  3.05293396920E-01	 -1.40723288000E+02	  9.10920164605E-01	  8.48661360000E+01	  9.24800254306E-02	  5.78273780000E+01
	  4.60914985191E-01	  3.38941380000E+01	  9.28106256057E-02	  5.80308490000E+01	  8.45089788578E-01	  7.62322990000E+01
1.01000000000E+03	  7.79706609064E-01	  1.71857579000E+02	  3.15203636501E-01	 -1.42024655000E+02	  4.73630943488E-01	  3.24908480000E+01
	  3.10901678461E-01	 -1.42046706000E+02	  9.08507417011E-01	  8.37365390000E+01	  9.47628315949E-02	  5.81613630000E+01
	  4.66667769435E-01	  3.26271290000E+01	  9.51067425875E-02	  5.83746790000E+01	  8.41361866366E-01	  7.50537500000E+01
