! Touchstone Ver. 1.0 
! Mon Dec  3 18:35:07 2012
! Number of ports is 1
# Hz	Z	RI	R	50.000000
! SCATTERING PARAMETERS  :
    0.10000000000000E-05     1.3886365682952        0.46316701223065E-05
     10.000000000000         1.6670521871437         9.4408419023574    
     20.000000000000         1.7709965560663         18.880734801319    
     30.000000000000         1.8774672972270         28.629884307543    
     40.000000000000         2.0151461320231         38.859433888987    
     50.000000000000         2.1967965352009         49.772866605885    
     60.000000000000         2.4339178414433         61.627836139920    
     70.000000000000         2.7413334822647         74.764259072611    
     80.000000000000         3.1406253600827         89.650057598197    
     90.000000000000         3.6652761909126         106.95922981430    
     100.00000000000         4.3704927906650         127.71262649935    
     110.00000000000         5.3542721583017         153.54984195642    
     120.00000000000         6.8077994460246         187.30167639451    
     130.00000000000         9.1536807889080         234.33926268282    
     140.00000000000         13.503743318421         306.28838849486    
     150.00000000000         23.677336871230         433.93226105136    
     160.00000000000         61.049163224746         734.15359624527    
     170.00000000000         632.53790397690         2342.6138231679    
     180.00000000000         311.50599127623        -1615.8524337544    
     190.00000000000         51.597628426644        -594.81891525690    
     200.00000000000         26.139707783017        -346.41071947679    
     210.00000000000         20.893160688331        -232.37645120052    
     220.00000000000         17.546376766418        -167.32105252384    
     230.00000000000         16.258842299905        -119.30375140485    
     240.00000000000         17.176965147289        -83.296900588706    
     250.00000000000         18.838866326267        -53.960809991766    
     260.00000000000         21.117486660262        -28.376177632976    
     270.00000000000         24.080645488480        -4.7552907340379    
     280.00000000000         27.911585630010         18.173434986375    
     290.00000000000         32.926286324974         41.453312716915    
     300.00000000000         39.633031315515         66.066356134951    
     310.00000000000         48.848563184138         93.051695566101    
     320.00000000000         61.916544268458         123.60027224677    
     330.00000000000         81.127506477074         159.10948945937    
     340.00000000000         110.54900551918         201.08182584789    
     350.00000000000         157.67845644718         250.41104583427    
     360.00000000000         236.47473561957         304.39496967651    
     370.00000000000         370.42920430052         346.02433022070    
     380.00000000000         578.34218297412         315.53250297585    
     390.00000000000         783.61944594028         107.28443305195    
     400.00000000000         776.80947370885        -216.22868421520    
     410.00000000000         587.98477938134        -404.87801314866    
     420.00000000000         408.26074314644        -442.62946292380    
     430.00000000000         288.62527203523        -420.71916124460    
     440.00000000000         213.70455491315        -385.48629024101    
     450.00000000000         165.80401633330        -351.51341526374    
     460.00000000000         133.90573315033        -322.30349976604    
     470.00000000000         111.67462688699        -298.11814340070    
     480.00000000000         95.359788419968        -278.39002316804    
     490.00000000000         82.567980067291        -262.37293174527    
     500.00000000000         71.653557980389        -249.21410977508    
     510.00000000000         61.551981026198        -237.87664651801    
     520.00000000000         51.903571193987        -227.23503643180    
     530.00000000000         43.056907266157        -216.50513744335    
     540.00000000000         35.595637359911        -205.59732054389    
     550.00000000000         29.785612316509        -194.90549076198    
     560.00000000000         25.488805997249        -184.84475737604    
     570.00000000000         22.388467374936        -175.63289956069    
     580.00000000000         20.173714236366        -167.31486050814    
     590.00000000000         18.602626726518        -159.84573215360    
     600.00000000000         17.501632390397        -153.14866431461    
     610.00000000000         16.748418476882        -147.14319117706    
     620.00000000000         16.255608152612        -141.75668401415    
     630.00000000000         15.958367103744        -136.92802016283    
     640.00000000000         15.805274057998        -132.60773055169    
     650.00000000000         15.751429682959        -128.75631153632    
     660.00000000000         15.753244083082        -125.34114266825    
     670.00000000000         15.764884544790        -122.33206793621    
     680.00000000000         15.736934272892        -119.69572932497    
     690.00000000000         15.618246648176        -117.38929038766    
     700.00000000000         15.361973822997        -115.35528292960    
     710.00000000000         14.935510336801        -113.52075820643    
     720.00000000000         14.330804486254        -111.80402742194    
     730.00000000000         13.568579315065        -110.12826791935    
     740.00000000000         12.692556740164        -108.43538411217    
     750.00000000000         11.756946155724        -106.69298935520    
     760.00000000000         10.813812155659        -104.89301764248    
     770.00000000000         9.9047825085077        -103.04506672177    
     780.00000000000         9.0578858154136        -101.16838443777    
     790.00000000000         8.2882753072959        -99.285122811724    
     800.00000000000         7.6009771383962        -97.415912507422    
     810.00000000000         6.9941295324802        -95.577656178186    
     820.00000000000         6.4618115238887        -93.782908808002    
     830.00000000000         5.9961496947091        -92.040166137536    
     840.00000000000         5.5886988891452        -90.354551723858    
     850.00000000000         5.2312607841115        -88.728586023196    
     860.00000000000         4.9163062452496        -87.162879767312    
     870.00000000000         4.6371506840556        -85.656708999800    
     880.00000000000         4.3879842531083        -84.208447907245    
     890.00000000000         4.1638281102109        -82.815891309104    
     900.00000000000         3.9604551683876        -81.476484645998    
     910.00000000000         3.7743039595911        -80.187479995862    
     920.00000000000         3.6023961924432        -78.946050174237    
     930.00000000000         3.4422622643646        -77.749363504192    
     940.00000000000         3.2918743078498        -76.594640399797    
     950.00000000000         3.1495903039486        -75.479190817708    
     960.00000000000         3.0141038519491        -74.400443485047    
     970.00000000000         2.8843996473884        -73.355967904201    
     980.00000000000         2.7597123930907        -72.343490742872    
     990.00000000000         2.6394876144471        -71.360907411545    
     1000.0000000000         2.5233444495881        -70.406289143185    
     1010.0000000000         2.4110405674534        -69.477884478954    
     1020.0000000000         2.3024394300773        -68.574116573480    
     1030.0000000000         2.1974797426186        -67.693575501168    
     1040.0000000000         2.0961503479552        -66.835007114883    
     1050.0000000000         1.9984696515434        -65.997298793184    
     1060.0000000000         1.9044673775932        -65.179464220404    
     1070.0000000000         1.8141740957811        -64.380627591730    
     1080.0000000000         1.7276113036956        -63.600008216881    
     1090.0000000000         1.6447868892787        -62.836906092120    
     1100.0000000000         1.5656922499953        -62.090689401572    
     1110.0000000000         1.4903013790749        -61.360783555952    
     1120.0000000000         1.4185710080895        -60.646661701005    
     1130.0000000000         1.3504415482519        -59.947836691068    
     1140.0000000000         1.2858387299044        -59.263854699734    
     1150.0000000000         1.2246756486570        -58.594289615607    
     1160.0000000000         1.1668543230901        -57.938738463730    
     1170.0000000000         1.1122678800399        -57.296817814495    
     1180.0000000000         1.0608024963652        -56.668160880466    
     1190.0000000000         1.0123390715410        -56.052414871983    
     1200.0000000000        0.96675496637936        -55.449239358120    
     1210.0000000000        0.92392562245919        -54.858304684333    
     1220.0000000000        0.88372575636471        -54.279290774994    
     1230.0000000000        0.84603068747523        -53.711886350982    
     1240.0000000000        0.81071736169363        -53.155788353297    
     1250.0000000000        0.77766510390403        -52.610701365186    
     1260.0000000000        0.74675645705084        -52.076337514098    
     1270.0000000000        0.71787763158183        -51.552415962706    
     1280.0000000000        0.69091906735438        -51.038663150073    
     1290.0000000000        0.66577570694785        -50.534812554682    
     1300.0000000000        0.64234715413562        -50.040604642610    
     1310.0000000000        0.62053798333382        -49.555787138286    
     1320.0000000000        0.60025759764512        -49.080114728371    
     1330.0000000000        0.58142039239496        -48.613349530223    
     1340.0000000000        0.56394554635141        -48.155260896509    
     1350.0000000000        0.54775697968505        -47.705625698267    
     1360.0000000000        0.53278308376723        -47.264228406748    
     1370.0000000000        0.51895645629680        -46.830861217970    
     1380.0000000000        0.50621358252137        -46.405324240017    
     1390.0000000000        0.49449432735027        -45.987425637141    
     1400.0000000000        0.48374149492252        -45.576981653604    
     1410.0000000000        0.47390011461647        -45.173816873623    
     1420.0000000000        0.46491677474658        -44.777764139794    
     1430.0000000000        0.45673866039726        -44.388664529323    
     1440.0000000000        0.44931264690925        -44.006367209562    
     1450.0000000000        0.44258416249050        -43.630728983419    
     1460.0000000000        0.43649599150089        -43.261613751484    
     1470.0000000000        0.43098707047673        -42.898891554844    
     1480.0000000000        0.42599132510557        -42.542437357159    
     1490.0000000000        0.42143655985242        -42.192129298929    
     1500.0000000000        0.41724377788176        -41.847846695082    
     1510.0000000000        0.41332678661958        -41.509467486567    
     1520.0000000000        0.40959247004404        -41.176865579679    
     1530.0000000000        0.40594176479837        -40.849907777086    
     1540.0000000000        0.40227148331725        -40.528451073500    
     1550.0000000000        0.39847703247338        -40.212339898868    
     1560.0000000000        0.39445601273293        -39.901404201157    
     1570.0000000000        0.39011266867484        -39.595458151817    
     1580.0000000000        0.38536287895643        -39.294300228409    
     1590.0000000000        0.38013967572716        -38.997714656630    
     1600.0000000000        0.37439840063888        -38.705474642974    
     1610.0000000000        0.36812136563444        -38.417347468769    
     1620.0000000000        0.36132092001011        -38.133101275078    
     1630.0000000000        0.35404029756370        -37.852513230890    
     1640.0000000000        0.34635158934212        -37.575377873087    
     1650.0000000000        0.33835088271756        -37.301514822312    
     1660.0000000000        0.33015081473584        -37.030774255921    
     1670.0000000000        0.32187168008267        -36.763039680558    
     1680.0000000000        0.31363244335348        -36.498227308533    
     1690.0000000000        0.30554280839230        -36.236282677107    
     1700.0000000000        0.29769734978276        -35.977175180940    
     1710.0000000000        0.29017206360458        -35.720891663761    
     1720.0000000000        0.28302317987141        -35.467429966562    
     1730.0000000000        0.27628781150348        -35.216793202023    
     1740.0000000000        0.26998594277080        -34.968984977221    
     1750.0000000000        0.26412324328326        -34.724005854563    
     1760.0000000000        0.25869445582823        -34.481851001116    
     1770.0000000000        0.25368688883995        -34.242509139736    
     1780.0000000000        0.24908353560549        -34.005962834260    
     1790.0000000000        0.24486531627317        -33.772189658985    
     1800.0000000000        0.24101210746628        -33.541163711702    
     1810.0000000000        0.23750290572262        -33.312856644883    
     1820.0000000000        0.23431560997813        -33.087238054602    
     1830.0000000000        0.23142709072085        -32.864275296438    
     1840.0000000000        0.22881358249562        -32.643933252717    
     1850.0000000000        0.22645136071776        -32.426174279605    
     1860.0000000000        0.22431740810578        -32.210958427289    
     1870.0000000000        0.22238996116098        -31.998243867075    
     1880.0000000000        0.22064885348101        -31.787987403474    
     1890.0000000000        0.21907565246637        -31.580144988189    
     1900.0000000000        0.21765372656640        -31.374672158965    
     1910.0000000000        0.21636815754063        -31.171524415839    
     1920.0000000000        0.21520563285060        -30.970657520444    
     1930.0000000000        0.21415431151655        -30.772027716405    
     1940.0000000000        0.21320368967777        -30.575591885251    
     1950.0000000000        0.21234443513122        -30.381307683851    
     1960.0000000000        0.21156828253929        -30.189133605891    
     1970.0000000000        0.21086788579200        -29.999029048044    
     1980.0000000000        0.21023672243188        -29.810954333623    
     1990.0000000000        0.20966898600386        -29.624870729788    
     2000.0000000000        0.20915950036846        -29.440740450580    
    

