! Touchstone Ver. 1.0 
! Mon Dec  3 18:35:07 2012
! Number of ports is 1
# Hz	Y	RI	R	50.000000
! SCATTERING PARAMETERS  :
	 0.10000000000000E-05     1.3886365682952        0.46316849305818E-05
     10.000000000000         1.6643951944748         9.4318123351745    
     20.000000000000         1.7598704229643         18.806831161426    
     30.000000000000         1.8509695186277         28.373793639624    
     40.000000000000         1.9643923615052         38.229688375144    
     50.000000000000         2.1096219120374         48.482025765904    
     60.000000000000         2.2929325089402         59.257058958032    
     70.000000000000         2.5208055940125         70.706263201323    
     80.000000000000         2.8011952312980         83.015830686019    
     90.000000000000         3.1444740050499         96.420669814477    
     100.00000000000         3.5646204153510         111.22530331984    
     110.00000000000         4.0810689388862         127.83592977135    
     120.00000000000         4.7218656698332         146.81135246379    
     130.00000000000         5.5294080167450         168.94725049014    
     140.00000000000         6.5715674105073         195.42249850918    
     150.00000000000         7.9648497679140         228.06842776284    
     160.00000000000         9.9271010782333         269.90128817371    
     170.00000000000         12.912048941731         326.27668994306    
     180.00000000000         18.011360137466         407.71869257905    
     190.00000000000         28.470359293060         538.15456678769    
     200.00000000000         58.062166260333         785.97951439240    
     210.00000000000         223.98185186369         1434.7516015668    
     220.00000000000         3794.5696455680         5044.1642565135    
     230.00000000000         306.81430368594        -1930.9666733806    
     240.00000000000         68.778679441647        -850.79948291969    
     250.00000000000         35.515711486062        -529.09766294242    
     260.00000000000         25.506781263767        -372.22061274764    
     270.00000000000         21.731142502238        -277.43269968408    
     280.00000000000         20.403485637910        -212.49590399151    
     290.00000000000         20.325131718740        -164.01750695215    
     300.00000000000         21.053173123070        -125.40139428198    
     310.00000000000         22.431323307450        -92.991357948980    
     320.00000000000         24.439514407128        -64.568468400566    
     330.00000000000         27.140759149418        -38.679919099371    
     340.00000000000         30.665037095054        -14.307310194445    
     350.00000000000         35.211451904482         9.3099742204091    
     360.00000000000         41.062904859598         32.772683500842    
     370.00000000000         48.612394734643         56.573822854238    
     380.00000000000         58.402055152200         81.117253690391    
     390.00000000000         71.176140271992         106.70231895195    
     400.00000000000         87.946004026426         133.46267250588    
     410.00000000000         110.05466683757         161.23520241009    
     420.00000000000         139.20169484965         189.32402825307    
     430.00000000000         177.33365178346         216.13213892970    
     440.00000000000         226.22030443318         238.70821887105    
     450.00000000000         286.49731054115         252.48435695808    
     460.00000000000         356.23046772875         251.86534840558    
     470.00000000000         429.99270138381         232.37016317629    
     480.00000000000         500.42209972325         193.56936258650    
     490.00000000000         562.72646326510         139.45404074842    
     500.00000000000         618.05107809111         73.386908478042    
     510.00000000000         669.59310665914        -9.5551199745416    
     520.00000000000         708.95907694112        -123.63235229465    
     530.00000000000         703.03392041477        -271.79782317628    
     540.00000000000         620.97252972255        -412.05313589849    
     550.00000000000         490.36007864660        -488.62929066199    
     560.00000000000         367.09567638641        -499.25175659493    
     570.00000000000         275.53065291268        -475.09072485823    
     580.00000000000         213.25066728300        -440.08047655364    
     590.00000000000         171.58842749042        -404.99422136750    
     600.00000000000         143.41179897573        -373.43502221818    
     610.00000000000         124.00410295639        -346.13038598318    
     620.00000000000         110.40742597222        -322.83618371753    
     630.00000000000         100.76568076471        -303.06165487303    
     640.00000000000         93.885505642641        -286.32168689056    
     650.00000000000         88.966742757063        -272.21140478845    
     660.00000000000         85.437831495803        -260.41501259582    
     670.00000000000         82.852902286354        -250.68909443198    
     680.00000000000         80.827207496851        -242.83351819343    
     690.00000000000         79.001357285921        -236.65402769984    
     700.00000000000         77.034175154571        -231.92103265725    
     710.00000000000         74.626499741977        -228.33681391403    
     720.00000000000         71.568563650817        -225.53055009020    
     730.00000000000         67.786100200371        -223.09399180297    
     740.00000000000         63.355054668381        -220.64690973626    
     750.00000000000         58.472788453131        -217.90207491745    
     760.00000000000         53.397819977423        -214.70205848479    
     770.00000000000         48.384180549681        -211.01681839984    
     780.00000000000         43.633742465765        -206.91088774444    
     790.00000000000         39.276507637070        -202.49939946323    
     800.00000000000         35.374269249668        -197.91002905148    
     810.00000000000         31.936624430183        -193.25857787423    
     820.00000000000         28.939513435653        -188.63778425672    
     830.00000000000         26.340871861716        -184.11523431389    
     840.00000000000         24.091656653062        -179.73611624110    
     850.00000000000         22.142646501693        -175.52772471735    
     860.00000000000         20.448098857578        -171.50402670212    
     870.00000000000         18.967364541687        -167.66958869758    
     880.00000000000         17.665294474134        -164.02260891989    
     890.00000000000         16.512017986215        -160.55716534725    
     900.00000000000         15.482427610204        -157.26481072218    
     910.00000000000         14.555579112220        -154.13565471124    
     920.00000000000         13.714106310362        -151.15911841059    
     930.00000000000         12.943693286696        -148.32442215458    
     940.00000000000         12.232608758896        -145.62092774319    
     950.00000000000         11.571319328446        -143.03835225705    
     960.00000000000         10.952154519454        -140.56692264611    
     970.00000000000         10.369022864202        -138.19747481642    
     980.00000000000         9.8171622132710        -135.92152449993    
     990.00000000000         9.2929174479191        -133.73130755427    
     1000.0000000000         8.7935387918746        -131.61980213270    
     1010.0000000000         8.3170014763005        -129.58072432341    
     1020.0000000000         7.8618416699026        -127.60850986072    
     1030.0000000000         7.4270109309112        -125.69827330138    
     1040.0000000000         7.0117552138773        -123.84575699944    
     1050.0000000000         6.6155174622974        -122.04726694871    
     1060.0000000000         6.2378535742259        -120.29960645427    
     1070.0000000000         5.8783794121921        -118.60000856423    
     1080.0000000000         5.5367253843138        -116.94607081511    
     1090.0000000000         5.2125117800332        -115.33569554977    
     1100.0000000000         4.9053320214640        -113.76703729040    
     1110.0000000000         4.6147458384856        -112.23845833926    
     1120.0000000000         4.3402763507628        -110.74848969397    
     1130.0000000000         4.0814111665774        -109.29579915507    
     1140.0000000000         3.8376071418889        -107.87916595831    
     1150.0000000000         3.6082959142771        -106.49745859080    
     1160.0000000000         3.3928886572382        -105.14961759816    
     1170.0000000000         3.1907831326479        -103.83464201248    
     1180.0000000000         3.0013698251083        -102.55157876809    
     1190.0000000000         2.8240369423853        -101.29951324430    
     1200.0000000000         2.6581761720989        -100.07756377730    
     1210.0000000000         2.5031873032883        -98.884876196140    
     1220.0000000000         2.3584819690217        -97.720620387871    
     1230.0000000000         2.2234873491671        -96.583987734083    
     1240.0000000000         2.0976490583529        -95.474189844171    
     1250.0000000000         1.9804328880751        -94.390456877578    
     1260.0000000000         1.8713270223282        -93.332037848841    
     1270.0000000000         1.7698427508998        -92.298199343981    
     1280.0000000000         1.6755155875972        -91.288226615568    
     1290.0000000000         1.5879055557603        -90.301423408136    
     1300.0000000000         1.5065968973735        -89.337111931768    
     1310.0000000000         1.4311984755374        -88.394634140764    
     1320.0000000000         1.3613426374695        -87.473351123471    
     1330.0000000000         1.2966850937370        -86.572644732110    
     1340.0000000000         1.2369036575711        -85.691917194574    
     1350.0000000000         1.1816975243192        -84.830592261009    
     1360.0000000000         1.1307858731378        -83.988115481800    
     1370.0000000000         1.0839065067816        -83.163954898127    
     1380.0000000000         1.0408143601909        -82.357601576992    
     1390.0000000000         1.0012794106995        -81.568570196322    
     1400.0000000000        0.96508490109294        -80.796399216004    
     1410.0000000000        0.93202463859279        -80.040651765789    
     1420.0000000000        0.90190059082331        -79.300915275615    
     1430.0000000000        0.87451940671785        -78.576801570305    
     1440.0000000000        0.84968934339364        -77.867946375032    
     1450.0000000000        0.82721629484461        -77.174007860589    
     1460.0000000000        0.80689982374948        -76.494664884234    
     1470.0000000000        0.78852903637313        -75.829614061673    
     1480.0000000000        0.77187877483882        -75.178565746827    
     1490.0000000000        0.75670582527448        -74.541238618582    
     1500.0000000000        0.74274666467951        -73.917353182567    
     1510.0000000000        0.72971600882063        -73.306623760467    
     1520.0000000000        0.71730757064028        -72.708749931634    
     1530.0000000000        0.70519699947922        -72.123406839260    
     1540.0000000000        0.69304757749985        -71.550236460300    
     1550.0000000000        0.68051875361333        -70.988838853924    
     1560.0000000000        0.66727755520215        -70.438765949440    
     1570.0000000000        0.65301265048888        -69.899517279379    
     1580.0000000000        0.63745036009577        -69.370540220955    
     1590.0000000000        0.62037226363309        -68.851234434749    
     1600.0000000000        0.60163184158632        -68.340962134612    
     1610.0000000000        0.58116956159466        -67.839064404105    
     1620.0000000000        0.55902292772331        -67.344883049874    
     1630.0000000000        0.53532927024941        -66.857786862209    
     1640.0000000000        0.51031941670353        -66.377198727001    
     1650.0000000000        0.48430205530064        -65.902620668659    
     1660.0000000000        0.45763967197849        -65.433651672303    
     1670.0000000000        0.43071976567985        -64.969996863108    
     1680.0000000000        0.40392566503153        -64.511465567443    
     1690.0000000000        0.37761077359369        -64.057960362089    
     1700.0000000000        0.35207948534536        -63.609459469694    
     1710.0000000000        0.32757597132327        -63.165995947052    
     1720.0000000000        0.30428034276181        -62.727636707264    
     1730.0000000000        0.28231079349250        -62.294463982781    
     1740.0000000000        0.26173006865045        -61.866559913209    
     1750.0000000000        0.24255471481204        -61.443994978180    
     1760.0000000000        0.22476601812130        -61.026820628909    
     1770.0000000000        0.20832141854771        -60.615065840191    
     1780.0000000000        0.19316457381626        -60.208738184840    
     1790.0000000000        0.17923261308986        -59.807827680246    
     1800.0000000000        0.16645947999683        -59.412311700591    
     1810.0000000000        0.15477640386160        -59.022158412593    
     1820.0000000000        0.14411122436344        -58.637328039215    
     1830.0000000000        0.13438863819881        -58.257772305353    
     1840.0000000000        0.12553142650348        -57.883433767336    
     1850.0000000000        0.11746267107207        -57.514245675891    
     1860.0000000000        0.11010787677387        -57.150132745894    
     1870.0000000000        0.10339671482253        -56.791012580910    
     1880.0000000000        0.97264095766703E-01    -56.436797372122    
     1890.0000000000        0.91650619046824E-01    -56.087395566709    
     1900.0000000000        0.86502746351470E-01    -55.742713330039    
     1910.0000000000        0.81772507298290E-01    -55.402655772517    
     1920.0000000000        0.77417154992387E-01    -55.067127931371    
     1930.0000000000        0.73398698880063E-01    -54.736035508646    
     1940.0000000000        0.69683486872250E-01    -54.409285384238    
     1950.0000000000        0.66241642370862E-01    -54.086786081309    
     1960.0000000000        0.63046734624726E-01    -53.768447975785    
     1970.0000000000        0.60075305617919E-01    -53.454183529384    
     1980.0000000000        0.57306540788469E-01    -53.143907381536    
     1990.0000000000        0.54721928552020E-01    -52.837536422790    
     2000.0000000000        0.52304993267164E-01    -52.534989813347    

