! Touchstone Ver. 1.0 
! Mon Dec  3 18:35:07 2012
! Number of ports is 2
# Hz	S	RI	R	50.000000
! SCATTERING PARAMETERS  :
1.00000000e+08    0.0464904  -0.025757   0.951144  -0.0369856   0.951144  -0.0369856   0.0464904  -0.025757  
2.00000000e+08    0.0431247  -0.0512436   0.947454  -0.0737096   0.947454  -0.0737096   0.0431247  -0.0512436  
3.00000000e+08    0.0375821  -0.0761966   0.941369  -0.109918   0.941369  -0.109918   0.0375821  -0.0761966  
4.00000000e+08    0.0299604  -0.100368   0.932983  -0.14537   0.932983  -0.14537   0.0299604  -0.100368  
5.00000000e+08    0.0203905  -0.123529   0.922425  -0.179849   0.922425  -0.179849   0.0203905  -0.123529  
6.00000000e+08    0.00903194  -0.145478   0.909847  -0.213159   0.909847  -0.213159   0.00903194  -0.145478  
7.00000000e+08    -0.00393308  -0.166044   0.895427  -0.245137   0.895427  -0.245137   -0.00393308  -0.166044  
8.00000000e+08    -0.018306  -0.185085   0.879355  -0.275652   0.879355  -0.275652   -0.018306  -0.185085  
9.00000000e+08    -0.0338782  -0.202494   0.86183  -0.304602   0.86183  -0.304602   -0.0338782  -0.202494  
1.00000000e+09    -0.0504368  -0.218195   0.843056  -0.331921   0.843056  -0.331921   -0.0504368  -0.218195  
1.10000000e+09    -0.06777  -0.232144   0.823233  -0.357571   0.823233  -0.357571   -0.06777  -0.232144  
1.20000000e+09    -0.0856721  -0.244324   0.802553  -0.381542   0.802553  -0.381542   -0.0856721  -0.244324  
1.30000000e+09    -0.103947  -0.254745   0.781198  -0.40385   0.781198  -0.40385   -0.103947  -0.254745  
1.40000000e+09    -0.12241  -0.263437   0.759337  -0.424531   0.759337  -0.424531   -0.12241  -0.263437  
1.50000000e+09    -0.140892  -0.270449   0.737121  -0.443639   0.737121  -0.443639   -0.140892  -0.270449  
1.60000000e+09    -0.159239  -0.275844   0.714684  -0.461242   0.714684  -0.461242   -0.159239  -0.275844  
1.70000000e+09    -0.177314  -0.2797   0.692144  -0.477418   0.692144  -0.477418   -0.177314  -0.2797  
1.80000000e+09    -0.194994  -0.282098   0.669599  -0.492252   0.669599  -0.492252   -0.194994  -0.282098  
1.90000000e+09    -0.212172  -0.283128   0.647132  -0.505835   0.647132  -0.505835   -0.212172  -0.283128  
2.00000000e+09    -0.228758  -0.282884   0.624806  -0.518258   0.624806  -0.518258   -0.228758  -0.282884  
2.10000000e+09    -0.244671  -0.281459   0.602673  -0.529612   0.602673  -0.529612   -0.244671  -0.281459  
2.20000000e+09    -0.259844  -0.278947   0.580768  -0.539985   0.580768  -0.539985   -0.259844  -0.278947  
2.30000000e+09    -0.274223  -0.275442   0.559114  -0.549463   0.559114  -0.549463   -0.274223  -0.275442  
2.40000000e+09    -0.287759  -0.271034   0.537723  -0.558126   0.537723  -0.558126   -0.287759  -0.271034  
2.50000000e+09    -0.300414  -0.265812   0.516597  -0.566049   0.516597  -0.566049   -0.300414  -0.265812  
2.60000000e+09    -0.312155  -0.259862   0.495727  -0.5733   0.495727  -0.5733   -0.312155  -0.259862  
2.70000000e+09    -0.322957  -0.253267    0.4751  -0.57994    0.4751  -0.57994   -0.322957  -0.253267  
2.80000000e+09    -0.332798  -0.246107   0.454694  -0.586023   0.454694  -0.586023   -0.332798  -0.246107  
2.90000000e+09    -0.34166  -0.238461   0.434483  -0.591594   0.434483  -0.591594   -0.34166  -0.238461  
3.00000000e+09    -0.349527  -0.230405   0.414435  -0.596693   0.414435  -0.596693   -0.349527  -0.230405  
3.10000000e+09    -0.35639  -0.222013   0.394516  -0.601348   0.394516  -0.601348   -0.35639  -0.222013  
3.20000000e+09    -0.362237  -0.21336   0.374691  -0.605581   0.374691  -0.605581   -0.362237  -0.21336  
3.30000000e+09    -0.367063  -0.204518   0.35492  -0.609406   0.35492  -0.609406   -0.367063  -0.204518  
3.40000000e+09    -0.370861  -0.195563   0.335165  -0.612827   0.335165  -0.612827   -0.370861  -0.195563  
3.50000000e+09    -0.37363  -0.186568   0.315388  -0.615842   0.315388  -0.615842   -0.37363  -0.186568  
3.60000000e+09    -0.375369  -0.17761   0.295552  -0.618437   0.295552  -0.618437   -0.375369  -0.17761  
3.70000000e+09    -0.376082  -0.168767   0.275624  -0.620594   0.275624  -0.620594   -0.376082  -0.168767  
3.80000000e+09    -0.375775  -0.16012   0.255573  -0.622282   0.255573  -0.622282   -0.375775  -0.16012  
3.90000000e+09    -0.374462  -0.151751   0.235373  -0.623465   0.235373  -0.623465   -0.374462  -0.151751  
4.00000000e+09    -0.372158  -0.143746   0.215006  -0.6241   0.215006  -0.6241   -0.372158  -0.143746  
4.10000000e+09    -0.368889  -0.136194   0.194458  -0.624135   0.194458  -0.624135   -0.368889  -0.136194  
4.20000000e+09    -0.364687  -0.129183   0.173728  -0.623512   0.173728  -0.623512   -0.364687  -0.129183  
4.30000000e+09    -0.359594  -0.122806   0.152822  -0.622171   0.152822  -0.622171   -0.359594  -0.122806  
4.40000000e+09    -0.35366  -0.117154   0.131759  -0.620044   0.131759  -0.620044   -0.35366  -0.117154  
4.50000000e+09    -0.346951  -0.112318   0.11057  -0.617065   0.11057  -0.617065   -0.346951  -0.112318  
4.60000000e+09    -0.33954  -0.108385   0.0893009  -0.613166   0.0893009  -0.613166   -0.33954  -0.108385  
4.70000000e+09    -0.331517  -0.105438   0.0680093  -0.608283   0.0680093  -0.608283   -0.331517  -0.105438  
4.80000000e+09    -0.322984  -0.10355   0.046769  -0.602356   0.046769  -0.602356   -0.322984  -0.10355  
4.90000000e+09    -0.314054  -0.102788   0.0256672  -0.595334   0.0256672  -0.595334   -0.314054  -0.102788  
5.00000000e+09    -0.304854  -0.103203   0.00480411  -0.587176   0.00480411  -0.587176   -0.304854  -0.103203  
5.10000000e+09    -0.295519  -0.104832   -0.0157088  -0.577858   -0.0157088  -0.577858   -0.295519  -0.104832  
5.20000000e+09    -0.286194  -0.107693   -0.0357511  -0.567368   -0.0357511  -0.567368   -0.286194  -0.107693  
5.30000000e+09    -0.277027  -0.111784   -0.0551962  -0.555717   -0.0551962  -0.555717   -0.277027  -0.111784  
5.40000000e+09    -0.268168  -0.117082   -0.0739153  -0.542935   -0.0739153  -0.542935   -0.268168  -0.117082  
5.50000000e+09    -0.259765  -0.123543   -0.0917808  -0.529071   -0.0917808  -0.529071   -0.259765  -0.123543  
5.60000000e+09    -0.251959  -0.131099   -0.108671  -0.514198   -0.108671  -0.514198   -0.251959  -0.131099  
5.70000000e+09    -0.244879  -0.139662   -0.124475  -0.498407   -0.124475  -0.498407   -0.244879  -0.139662  
5.80000000e+09    -0.23864  -0.149126   -0.139094  -0.481807   -0.139094  -0.481807   -0.23864  -0.149126  
5.90000000e+09    -0.233341  -0.15937   -0.152447  -0.464524   -0.152447  -0.464524   -0.233341  -0.15937  
6.00000000e+09    -0.229056  -0.17026   -0.164473  -0.446692   -0.164473  -0.446692   -0.229056  -0.17026  
6.10000000e+09    -0.225842  -0.181654   -0.175132  -0.428455   -0.175132  -0.428455   -0.225842  -0.181654  
6.20000000e+09    -0.22373  -0.193409   -0.184407  -0.409958   -0.184407  -0.409958   -0.22373  -0.193409  
6.30000000e+09    -0.222728  -0.205379   -0.1923  -0.391347   -0.1923  -0.391347   -0.222728  -0.205379  
6.40000000e+09    -0.222826  -0.217426   -0.198837  -0.37276   -0.198837  -0.37276   -0.222826  -0.217426  
6.50000000e+09    -0.223991  -0.229419   -0.204061  -0.354328   -0.204061  -0.354328   -0.223991  -0.229419  
6.60000000e+09    -0.226177  -0.241238   -0.20803  -0.336172   -0.20803  -0.336172   -0.226177  -0.241238  
6.70000000e+09    -0.229322  -0.252776   -0.210816  -0.318398   -0.210816  -0.318398   -0.229322  -0.252776  
6.80000000e+09    -0.233354  -0.263942   -0.212502  -0.301097   -0.212502  -0.301097   -0.233354  -0.263942  
6.90000000e+09    -0.238192  -0.274658   -0.213177  -0.284345   -0.213177  -0.284345   -0.238192  -0.274658  
7.00000000e+09    -0.243753  -0.284862   -0.212934  -0.268205   -0.212934  -0.268205   -0.243753  -0.284862  
7.10000000e+09    -0.24995  -0.294507   -0.211869  -0.252722   -0.211869  -0.252722   -0.24995  -0.294507  
7.20000000e+09    -0.256697  -0.303558   -0.210075  -0.237929   -0.210075  -0.237929   -0.256697  -0.303558  
7.30000000e+09    -0.263911  -0.311995   -0.207644  -0.223847   -0.207644  -0.223847   -0.263911  -0.311995  
7.40000000e+09    -0.271511  -0.319806   -0.204663  -0.210485   -0.204663  -0.210485   -0.271511  -0.319806  
7.50000000e+09    -0.279422  -0.326991   -0.201216  -0.197843   -0.201216  -0.197843   -0.279422  -0.326991  
7.60000000e+09    -0.287574  -0.333556   -0.197378  -0.185912   -0.197378  -0.185912   -0.287574  -0.333556  
7.70000000e+09    -0.295904  -0.339515   -0.193219  -0.174678   -0.193219  -0.174678   -0.295904  -0.339515  
7.80000000e+09    -0.304354  -0.344887   -0.188803  -0.16412   -0.188803  -0.16412   -0.304354  -0.344887  
7.90000000e+09    -0.312871  -0.349694   -0.184187  -0.154214   -0.184187  -0.154214   -0.312871  -0.349694  
8.00000000e+09    -0.321412  -0.353961   -0.179422  -0.144934   -0.179422  -0.144934   -0.321412  -0.353961  
8.10000000e+09    -0.329937  -0.357718   -0.174553  -0.13625   -0.174553  -0.13625   -0.329937  -0.357718  
8.20000000e+09    -0.338411  -0.360992   -0.169618  -0.128131   -0.169618  -0.128131   -0.338411  -0.360992  
8.30000000e+09    -0.346806  -0.363813   -0.164651  -0.120547   -0.164651  -0.120547   -0.346806  -0.363813  
8.40000000e+09    -0.355096  -0.36621   -0.159681  -0.113467   -0.159681  -0.113467   -0.355096  -0.36621  
8.50000000e+09    -0.363262  -0.368212   -0.154734  -0.10686   -0.154734  -0.10686   -0.363262  -0.368212  
8.60000000e+09    -0.371287  -0.369848   -0.149828  -0.100697   -0.149828  -0.100697   -0.371287  -0.369848  
8.70000000e+09    -0.379158  -0.371145   -0.144983  -0.0949484   -0.144983  -0.0949484   -0.379158  -0.371145  
8.80000000e+09    -0.386863  -0.372128   -0.140211  -0.0895868   -0.140211  -0.0895868   -0.386863  -0.372128  
8.90000000e+09    -0.394395  -0.372824   -0.135525  -0.0845859   -0.135525  -0.0845859   -0.394395  -0.372824  
9.00000000e+09    -0.401749  -0.373256   -0.130934  -0.0799205   -0.130934  -0.0799205   -0.401749  -0.373256  
9.10000000e+09    -0.408919  -0.373445   -0.126444  -0.0755671   -0.126444  -0.0755671   -0.408919  -0.373445  
9.20000000e+09    -0.415905  -0.373414   -0.122062  -0.0715035   -0.122062  -0.0715035   -0.415905  -0.373414  
9.30000000e+09    -0.422704  -0.37318   -0.11779  -0.0677087   -0.11779  -0.0677087   -0.422704  -0.37318  
9.40000000e+09    -0.429318  -0.372762   -0.113632  -0.0641633   -0.113632  -0.0641633   -0.429318  -0.372762  
9.50000000e+09    -0.435747  -0.372178   -0.109589  -0.0608492   -0.109589  -0.0608492   -0.435747  -0.372178  
9.60000000e+09    -0.441993  -0.371442   -0.105661  -0.0577494   -0.105661  -0.0577494   -0.441993  -0.371442  
9.70000000e+09    -0.448059  -0.37057   -0.101849  -0.0548482   -0.101849  -0.0548482   -0.448059  -0.37057  
9.80000000e+09    -0.453949  -0.369574   -0.0981515  -0.052131   -0.0981515  -0.052131   -0.453949  -0.369574  
9.90000000e+09    -0.459665  -0.368467   -0.0945671  -0.0495843   -0.0945671  -0.0495843   -0.459665  -0.368467  
1.00000000e+10    -0.465211  -0.36726   -0.0910941  -0.0471955   -0.0910941  -0.0471955   -0.465211  -0.36726  
1.01000000e+10    -0.470592  -0.365963   -0.0877305  -0.0449532   -0.0877305  -0.0449532   -0.470592  -0.365963  
1.02000000e+10    -0.475813  -0.364586   -0.0844738  -0.0428465   -0.0844738  -0.0428465   -0.475813  -0.364586  
1.03000000e+10    -0.480876  -0.363138   -0.0813216  -0.0408656   -0.0813216  -0.0408656   -0.480876  -0.363138  
1.04000000e+10    -0.485788  -0.361627   -0.078271  -0.0390013   -0.078271  -0.0390013   -0.485788  -0.361627  
1.05000000e+10    -0.490552  -0.36006   -0.0753193  -0.0372452   -0.0753193  -0.0372452   -0.490552  -0.36006  
1.06000000e+10    -0.495173  -0.358444   -0.0724635  -0.0355895   -0.0724635  -0.0355895   -0.495173  -0.358444  
1.07000000e+10    -0.499656  -0.356785   -0.0697007  -0.034027   -0.0697007  -0.034027   -0.499656  -0.356785  
1.08000000e+10    -0.504004  -0.355089   -0.067028  -0.032551   -0.067028  -0.032551   -0.504004  -0.355089  
1.09000000e+10    -0.508223  -0.353361   -0.0644423  -0.0311554   -0.0644423  -0.0311554   -0.508223  -0.353361  
1.10000000e+10    -0.512317  -0.351605   -0.0619407  -0.0298345   -0.0619407  -0.0298345   -0.512317  -0.351605  
1.11000000e+10    -0.51629  -0.349825   -0.0595204  -0.0285831   -0.0595204  -0.0285831   -0.51629  -0.349825  
1.12000000e+10    -0.520146  -0.348027   -0.0571786  -0.0273963   -0.0571786  -0.0273963   -0.520146  -0.348027  
1.13000000e+10    -0.52389  -0.346212   -0.0549123  -0.0262698   -0.0549123  -0.0262698   -0.52389  -0.346212  
1.14000000e+10    -0.527524  -0.344386   -0.0527189  -0.0251992   -0.0527189  -0.0251992   -0.527524  -0.344386  
1.15000000e+10    -0.531053  -0.342549   -0.0505958  -0.0241809   -0.0505958  -0.0241809   -0.531053  -0.342549  
1.16000000e+10    -0.534481  -0.340706   -0.0485403  -0.0232113   -0.0485403  -0.0232113   -0.534481  -0.340706  
1.17000000e+10    -0.537811  -0.338858   -0.04655  -0.0222871   -0.04655  -0.0222871   -0.537811  -0.338858  
1.18000000e+10    -0.541046  -0.337008   -0.0446225  -0.0214053   -0.0446225  -0.0214053   -0.541046  -0.337008  
1.19000000e+10    -0.544191  -0.335158   -0.0427553  -0.020563   -0.0427553  -0.020563   -0.544191  -0.335158  
1.20000000e+10    -0.547247  -0.333309   -0.0409463  -0.0197578   -0.0409463  -0.0197578   -0.547247  -0.333309  
1.21000000e+10    -0.550218  -0.331464   -0.0391933  -0.0189872   -0.0391933  -0.0189872   -0.550218  -0.331464  
1.22000000e+10    -0.553108  -0.329623   -0.0374942  -0.0182489   -0.0374942  -0.0182489   -0.553108  -0.329623  
1.23000000e+10    -0.555918  -0.327788   -0.0358468  -0.0175409   -0.0358468  -0.0175409   -0.555918  -0.327788  
1.24000000e+10    -0.558652  -0.325961   -0.0342494  -0.0168613   -0.0342494  -0.0168613   -0.558652  -0.325961  
1.25000000e+10    -0.561313  -0.324142   -0.0327  -0.0162082   -0.0327  -0.0162082   -0.561313  -0.324142  
1.26000000e+10    -0.563903  -0.322332   -0.0311968  -0.0155801   -0.0311968  -0.0155801   -0.563903  -0.322332  
1.27000000e+10    -0.566423  -0.320533   -0.0297382  -0.0149754   -0.0297382  -0.0149754   -0.566423  -0.320533  
1.28000000e+10    -0.568878  -0.318744   -0.0283223  -0.0143927   -0.0283223  -0.0143927   -0.568878  -0.318744  
1.29000000e+10    -0.571269  -0.316968   -0.0269477  -0.0138306   -0.0269477  -0.0138306   -0.571269  -0.316968  
1.30000000e+10    -0.573598  -0.315203   -0.0256128  -0.0132879   -0.0256128  -0.0132879   -0.573598  -0.315203  
1.31000000e+10    -0.575867  -0.313452   -0.0243161  -0.0127634   -0.0243161  -0.0127634   -0.575867  -0.313452  
1.32000000e+10    -0.578078  -0.311714   -0.0230562  -0.0122561   -0.0230562  -0.0122561   -0.578078  -0.311714  
1.33000000e+10    -0.580234  -0.30999   -0.0218319  -0.011765   -0.0218319  -0.011765   -0.580234  -0.30999  
1.34000000e+10    -0.582336  -0.30828   -0.0206417  -0.0112891   -0.0206417  -0.0112891   -0.582336  -0.30828  
1.35000000e+10    -0.584385  -0.306584   -0.0194844  -0.0108275   -0.0194844  -0.0108275   -0.584385  -0.306584  
1.36000000e+10    -0.586385  -0.304903   -0.0183589  -0.0103795   -0.0183589  -0.0103795   -0.586385  -0.304903  
1.37000000e+10    -0.588335  -0.303238   -0.0172639  -0.00994431   -0.0172639  -0.00994431   -0.588335  -0.303238  
1.38000000e+10    -0.590239  -0.301587   -0.0161985  -0.00952118   -0.0161985  -0.00952118   -0.590239  -0.301587  
1.39000000e+10    -0.592097  -0.299952   -0.0151615  -0.00910947   -0.0151615  -0.00910947   -0.592097  -0.299952  
1.40000000e+10    -0.59391  -0.298333   -0.0141519  -0.00870856   -0.0141519  -0.00870856   -0.59391  -0.298333  
1.41000000e+10    -0.595681  -0.296729   -0.0131688  -0.00831785   -0.0131688  -0.00831785   -0.595681  -0.296729  
1.42000000e+10    -0.597411  -0.29514   -0.0122112  -0.00793682   -0.0122112  -0.00793682   -0.597411  -0.29514  
1.43000000e+10    -0.5991  -0.293568   -0.0112783  -0.00756496   -0.0112783  -0.00756496   -0.5991  -0.293568  
1.44000000e+10    -0.600751  -0.292011   -0.0103692  -0.00720178   -0.0103692  -0.00720178   -0.600751  -0.292011  
1.45000000e+10    -0.602364  -0.290471   -0.00948296  -0.00684684   -0.00948296  -0.00684684   -0.602364  -0.290471  
1.46000000e+10    -0.603941  -0.288946   -0.00861894  -0.00649972   -0.00861894  -0.00649972   -0.603941  -0.288946  
1.47000000e+10    -0.605483  -0.287436   -0.00777633  -0.00616002   -0.00777633  -0.00616002   -0.605483  -0.287436  
1.48000000e+10    -0.60699  -0.285943   -0.0069544  -0.00582738   -0.0069544  -0.00582738   -0.60699  -0.285943  
1.49000000e+10    -0.608464  -0.284465   -0.00615246  -0.00550145   -0.00615246  -0.00550145   -0.608464  -0.284465  
1.50000000e+10    -0.609906  -0.283003   -0.00536984  -0.00518191   -0.00536984  -0.00518191   -0.609906  -0.283003  
1.51000000e+10    -0.611317  -0.281556   -0.00460589  -0.00486844   -0.00460589  -0.00486844   -0.611317  -0.281556  
1.52000000e+10    -0.612697  -0.280125   -0.00385999  -0.00456076   -0.00385999  -0.00456076   -0.612697  -0.280125  
1.53000000e+10    -0.614048  -0.278709   -0.00313155  -0.0042586   -0.00313155  -0.0042586   -0.614048  -0.278709  
1.54000000e+10    -0.615371  -0.277309   -0.00242  -0.0039617   -0.00242  -0.0039617   -0.615371  -0.277309  
1.55000000e+10    -0.616666  -0.275923   -0.00172478  -0.00366982   -0.00172478  -0.00366982   -0.616666  -0.275923  
1.56000000e+10    -0.617934  -0.274553   -0.00104536  -0.00338274   -0.00104536  -0.00338274   -0.617934  -0.274553  
1.57000000e+10    -0.619176  -0.273198   -0.000381247  -0.00310023   -0.000381247  -0.00310023   -0.619176  -0.273198  
1.58000000e+10    -0.620392  -0.271857   0.000268062  -0.00282211   0.000268062  -0.00282211   -0.620392  -0.271857  
1.59000000e+10    -0.621584  -0.270531   0.000903033  -0.00254818   0.000903033  -0.00254818   -0.621584  -0.270531  
1.60000000e+10    -0.622753  -0.26922   0.00152412  -0.00227825   0.00152412  -0.00227825   -0.622753  -0.26922  
1.61000000e+10    -0.623897  -0.267923   0.00213176  -0.00201217   0.00213176  -0.00201217   -0.623897  -0.267923  
1.62000000e+10    -0.62502  -0.26664   0.00272636  -0.00174977   0.00272636  -0.00174977   -0.62502  -0.26664  
1.63000000e+10    -0.62612  -0.265372   0.00330835  -0.00149089   0.00330835  -0.00149089   -0.62612  -0.265372  
1.64000000e+10    -0.627199  -0.264117   0.0038781  -0.0012354   0.0038781  -0.0012354   -0.627199  -0.264117  
1.65000000e+10    -0.628257  -0.262877   0.00443598  -0.000983161   0.00443598  -0.000983161   -0.628257  -0.262877  
1.66000000e+10    -0.629295  -0.26165   0.00498237  -0.000734043   0.00498237  -0.000734043   -0.629295  -0.26165  
1.67000000e+10    -0.630313  -0.260436   0.0055176  -0.000487926   0.0055176  -0.000487926   -0.630313  -0.260436  
1.68000000e+10    -0.631313  -0.259236   0.00604202  -0.000244694   0.00604202  -0.000244694   -0.631313  -0.259236  
1.69000000e+10    -0.632293  -0.258049   0.00655595  -4.23951e-06   0.00655595  -4.23951e-06   -0.632293  -0.258049  
1.70000000e+10    -0.633256  -0.256875   0.0070597  0.000233542   0.0070597  0.000233542   -0.633256  -0.256875  
1.71000000e+10    -0.6342  -0.255715   0.00755356  0.000468747   0.00755356  0.000468747   -0.6342  -0.255715  
1.72000000e+10    -0.635128  -0.254566   0.00803784  0.00070147   0.00803784  0.00070147   -0.635128  -0.254566  
1.73000000e+10    -0.636039  -0.253431   0.00851281  0.000931799   0.00851281  0.000931799   -0.636039  -0.253431  
1.74000000e+10    -0.636933  -0.252308   0.00897874  0.00115982   0.00897874  0.00115982   -0.636933  -0.252308  
1.75000000e+10    -0.637812  -0.251197   0.00943589  0.0013856   0.00943589  0.0013856   -0.637812  -0.251197  
1.76000000e+10    -0.638675  -0.250099   0.00988451  0.00160923   0.00988451  0.00160923   -0.638675  -0.250099  
1.77000000e+10    -0.639523  -0.249013   0.0103248  0.00183078   0.0103248  0.00183078   -0.639523  -0.249013  
1.78000000e+10    -0.640357  -0.247938   0.0107571  0.00205031   0.0107571  0.00205031   -0.640357  -0.247938  
