! Libra (TM) Ver. 3.500.103.3 
! Fri Mar  2 21:02:55 2012
! Number of ports is 2
# Hz	S	RI	R	50.000000
! SCATTERING PARAMETERS  :
0.00000000e+00    -0.985217  1.2065e-16   0.000336546        0   0.000336546       -0   -0.985217  1.2065e-16  
1.00000000e+08    -0.985209  0.00302212   0.000338201  0.000541306   0.000338201  0.000541306   -0.985209  0.00304543  
2.00000000e+08    -0.985185  0.00604355   0.000343166  0.00108258   0.000343166  0.00108258   -0.985185  0.00609017  
3.00000000e+08    -0.985145  0.00906364   0.000351437  0.00162379   0.000351437  0.00162379   -0.985144  0.00913356  
4.00000000e+08    -0.985089  0.0120817   0.000363012  0.00216491   0.000363012  0.00216491   -0.985087  0.012175  
5.00000000e+08    -0.985017  0.0150972   0.000377885  0.0027059   0.000377885  0.0027059   -0.985015  0.0152138  
6.00000000e+08    -0.98493  0.0181096   0.00039605  0.00324673   0.00039605  0.00324673   -0.984928  0.0182494  
7.00000000e+08    -0.984829  0.0211184   0.000417498  0.00378739   0.000417498  0.00378739   -0.984825  0.0212815  
8.00000000e+08    -0.984713  0.0241232   0.000442223  0.00432783   0.000442223  0.00432783   -0.984709  0.0243095  
9.00000000e+08    -0.984584  0.0271236   0.000470214  0.00486803   0.000470214  0.00486803   -0.984578  0.0273332  
1.00000000e+09    -0.984441  0.0301193   0.000501462  0.00540797   0.000501462  0.00540797   -0.984434  0.0303522  
1.10000000e+09    -0.984285  0.0331103   0.000535959  0.00594763   0.000535959  0.00594763   -0.984276  0.0333664  
1.20000000e+09    -0.984117  0.0360962   0.000573693  0.00648697   0.000573693  0.00648697   -0.984106  0.0363756  
1.30000000e+09    -0.983937  0.0390772   0.000614656  0.00702598   0.000614656  0.00702598   -0.983925  0.0393797  
1.40000000e+09    -0.983745  0.042053   0.000658838  0.00756464   0.000658838  0.00756464   -0.983731  0.0423788  
1.50000000e+09    -0.983542  0.0450238   0.00070623  0.00810293   0.00070623  0.00810293   -0.983526  0.0453727  
1.60000000e+09    -0.983329  0.0479896   0.000756822  0.00864082   0.000756822  0.00864082   -0.983311  0.0483617  
1.70000000e+09    -0.983105  0.0509504   0.000810606  0.0091783   0.000810606  0.0091783   -0.983085  0.0513457  
1.80000000e+09    -0.982872  0.0539065   0.000867574  0.00971534   0.000867574  0.00971534   -0.982849  0.0543249  
1.90000000e+09    -0.982628  0.0568579   0.000927718  0.0102519   0.000927718  0.0102519   -0.982603  0.0572994  
2.00000000e+09    -0.982375  0.0598048   0.00099103  0.0107881   0.00099103  0.0107881   -0.982347  0.0602694  
2.10000000e+09    -0.982113  0.0627473   0.0010575  0.0113237   0.0010575  0.0113237   -0.982082  0.063235  
2.20000000e+09    -0.981841  0.0656855   0.00112713  0.0118588   0.00112713  0.0118588   -0.981807  0.0661963  
2.30000000e+09    -0.981561  0.0686197   0.00119991  0.0123934   0.00119991  0.0123934   -0.981524  0.0691534  
2.40000000e+09    -0.981272  0.0715499   0.00127582  0.0129275   0.00127582  0.0129275   -0.981231  0.0721067  
2.50000000e+09    -0.980974  0.0744763   0.00135488  0.013461   0.00135488  0.013461   -0.98093  0.075056  
2.60000000e+09    -0.980667  0.077399   0.00143706  0.0139939   0.00143706  0.0139939   -0.980619  0.0780017  
2.70000000e+09    -0.980351  0.0803181   0.00152236  0.0145263   0.00152236  0.0145263   -0.9803  0.0809438  
2.80000000e+09    -0.980027  0.0832339   0.00161078  0.015058   0.00161078  0.015058   -0.979972  0.0838824  
2.90000000e+09    -0.979695  0.0861462   0.00170231  0.0155891   0.00170231  0.0155891   -0.979636  0.0868177  
3.00000000e+09    -0.979354  0.0890554   0.00179694  0.0161195   0.00179694  0.0161195   -0.979291  0.0897497  
3.10000000e+09    -0.979004  0.0919613   0.00189468  0.0166493   0.00189468  0.0166493   -0.978937  0.0926785  
3.20000000e+09    -0.978646  0.0948641   0.0019955  0.0171784   0.0019955  0.0171784   -0.978575  0.0956041  
3.30000000e+09    -0.97828  0.0977639   0.00209942  0.0177068   0.00209942  0.0177068   -0.978204  0.0985267  
3.40000000e+09    -0.977905  0.100661   0.00220641  0.0182344   0.00220641  0.0182344   -0.977824  0.101446  
3.50000000e+09    -0.977521  0.103555   0.00231648  0.0187613   0.00231648  0.0187613   -0.977436  0.104363  
3.60000000e+09    -0.977129  0.106446   0.00242961  0.0192875   0.00242961  0.0192875   -0.977039  0.107276  
3.70000000e+09    -0.976728  0.109334   0.0025458  0.0198128   0.0025458  0.0198128   -0.976633  0.110187  
3.80000000e+09    -0.976319  0.112219   0.00266505  0.0203374   0.00266505  0.0203374   -0.976219  0.113095  
3.90000000e+09    -0.975902  0.115101   0.00278735  0.0208611   0.00278735  0.0208611   -0.975796    0.116  
4.00000000e+09    -0.975475  0.117981   0.00291268  0.021384   0.00291268  0.021384   -0.975364  0.118902  
4.10000000e+09    -0.975041  0.120857   0.00304105  0.0219061   0.00304105  0.0219061   -0.974924  0.121801  
4.20000000e+09    -0.974597  0.123731   0.00317245  0.0224273   0.00317245  0.0224273   -0.974475  0.124698  
4.30000000e+09    -0.974145  0.126602   0.00330686  0.0229476   0.00330686  0.0229476   -0.974017  0.127591  
4.40000000e+09    -0.973685  0.129471   0.00344428  0.0234669   0.00344428  0.0234669   -0.973551  0.130482  
4.50000000e+09    -0.973216  0.132336   0.0035847  0.0239854   0.0035847  0.0239854   -0.973076  0.133369  
4.60000000e+09    -0.972738  0.135198   0.00372812  0.0245029   0.00372812  0.0245029   -0.972592  0.136254  
4.70000000e+09    -0.972252  0.138058   0.00387452  0.0250194   0.00387452  0.0250194   -0.972099  0.139136  
4.80000000e+09    -0.971757  0.140914   0.0040239  0.025535   0.0040239  0.025535   -0.971598  0.142015  
4.90000000e+09    -0.971253  0.143768   0.00417625  0.0260495   0.00417625  0.0260495   -0.971088  0.14489  
5.00000000e+09    -0.970741  0.146619   0.00433156  0.026563   0.00433156  0.026563   -0.970569  0.147763  
5.10000000e+09    -0.970221  0.149466   0.00448983  0.0270755   0.00448983  0.0270755   -0.970042  0.150633  
5.20000000e+09    -0.969692  0.152311   0.00465103  0.027587   0.00465103  0.027587   -0.969506   0.1535  
5.30000000e+09    -0.969154  0.155153   0.00481517  0.0280973   0.00481517  0.0280973   -0.968961  0.156363  
5.40000000e+09    -0.968607  0.157991   0.00498224  0.0286066   0.00498224  0.0286066   -0.968407  0.159224  
5.50000000e+09    -0.968053  0.160827   0.00515222  0.0291147   0.00515222  0.0291147   -0.967845  0.162081  
5.60000000e+09    -0.967489  0.163659   0.0053251  0.0296218   0.0053251  0.0296218   -0.967274  0.164936  
5.70000000e+09    -0.966917  0.166488   0.00550089  0.0301276   0.00550089  0.0301276   -0.966695  0.167786  
5.80000000e+09    -0.966337  0.169314   0.00567956  0.0306324   0.00567956  0.0306324   -0.966106  0.170634  
5.90000000e+09    -0.965748  0.172137   0.0058611  0.0311359   0.0058611  0.0311359   -0.96551  0.173479  
6.00000000e+09    -0.965151  0.174956   0.00604551  0.0316383   0.00604551  0.0316383   -0.964904  0.17632  
6.10000000e+09    -0.964545  0.177772   0.00623278  0.0321394   0.00623278  0.0321394   -0.96429  0.179157  
6.20000000e+09    -0.96393  0.180585   0.0064229  0.0326393   0.0064229  0.0326393   -0.963668  0.181992  
6.30000000e+09    -0.963308  0.183394   0.00661585  0.033138   0.00661585  0.033138   -0.963037  0.184823  
6.40000000e+09    -0.962677   0.1862   0.00681163  0.0336354   0.00681163  0.0336354   -0.962397  0.18765  
6.50000000e+09    -0.962037  0.189003   0.00701023  0.0341315   0.00701023  0.0341315   -0.961749  0.190474  
6.60000000e+09    -0.96139  0.191802   0.00721162  0.0346264   0.00721162  0.0346264   -0.961093  0.193294  
6.70000000e+09    -0.960733  0.194597   0.00741582  0.0351199   0.00741582  0.0351199   -0.960428  0.196111  
6.80000000e+09    -0.960069  0.197389   0.0076228  0.0356121   0.0076228  0.0356121   -0.959755  0.198925  
6.90000000e+09    -0.959396  0.200178   0.00783255  0.0361029   0.00783255  0.0361029   -0.959073  0.201734  
7.00000000e+09    -0.958716  0.202963   0.00804506  0.0365924   0.00804506  0.0365924   -0.958383  0.20454  
7.10000000e+09    -0.958026  0.205744   0.00826032  0.0370806   0.00826032  0.0370806   -0.957685  0.207343  
7.20000000e+09    -0.957329  0.208522   0.00847832  0.0375673   0.00847832  0.0375673   -0.956978  0.210141  
7.30000000e+09    -0.956624  0.211296   0.00869905  0.0380526   0.00869905  0.0380526   -0.956263  0.212936  
7.40000000e+09    -0.95591  0.214066   0.0089225  0.0385365   0.0089225  0.0385365   -0.95554  0.215727  
7.50000000e+09    -0.955188  0.216832   0.00914866  0.039019   0.00914866  0.039019   -0.954808  0.218515  
7.60000000e+09    -0.954459  0.219595   0.00937751   0.0395   0.00937751   0.0395   -0.954069  0.221298  
7.70000000e+09    -0.953721  0.222354   0.00960904  0.0399796   0.00960904  0.0399796   -0.953321  0.224078  
7.80000000e+09    -0.952975  0.225109   0.00984324  0.0404577   0.00984324  0.0404577   -0.952565  0.226854  
7.90000000e+09    -0.952221  0.22786   0.0100801  0.0409343   0.0100801  0.0409343   -0.951801  0.229626  
8.00000000e+09    -0.95146  0.230608   0.0103196  0.0414094   0.0103196  0.0414094   -0.951029  0.232394  
8.10000000e+09    -0.95069  0.233351   0.0105618  0.0418829   0.0105618  0.0418829   -0.950249  0.235158  
8.20000000e+09    -0.949913  0.236091   0.0108065  0.0423549   0.0108065  0.0423549   -0.949461  0.237918  
8.30000000e+09    -0.949127  0.238827   0.0110539  0.0428254   0.0110539  0.0428254   -0.948665  0.240674  
8.40000000e+09    -0.948334  0.241558   0.0113039  0.0432943   0.0113039  0.0432943   -0.947861  0.243426  
8.50000000e+09    -0.947533  0.244286   0.0115565  0.0437617   0.0115565  0.0437617   -0.947049  0.246174  
8.60000000e+09    -0.946724  0.24701   0.0118116  0.0442274   0.0118116  0.0442274   -0.946229  0.248917  
8.70000000e+09    -0.945908  0.249729   0.0120694  0.0446915   0.0120694  0.0446915   -0.945401  0.251657  
8.80000000e+09    -0.945083  0.252445   0.0123296  0.045154   0.0123296  0.045154   -0.944566  0.254393  
8.90000000e+09    -0.944252  0.255156   0.0125924  0.0456149   0.0125924  0.0456149   -0.943722  0.257124  
9.00000000e+09    -0.943412  0.257864   0.0128578  0.0460741   0.0128578  0.0460741   -0.942871  0.259851  
9.10000000e+09    -0.942565  0.260567   0.0131256  0.0465317   0.0131256  0.0465317   -0.942013  0.262575  
9.20000000e+09    -0.94171  0.263266   0.013396  0.0469876   0.013396  0.0469876   -0.941146  0.265293  
9.30000000e+09    -0.940848  0.265961   0.0136688  0.0474418   0.0136688  0.0474418   -0.940272  0.268008  
9.40000000e+09    -0.939978  0.268652   0.0139442  0.0478944   0.0139442  0.0478944   -0.93939  0.270718  
9.50000000e+09    -0.939101  0.271338   0.014222  0.0483452   0.014222  0.0483452   -0.938501  0.273425  
9.60000000e+09    -0.938216  0.274021   0.0145022  0.0487942   0.0145022  0.0487942   -0.937604  0.276126  
9.70000000e+09    -0.937324  0.276699   0.0147849  0.0492416   0.0147849  0.0492416   -0.9367  0.278824  
9.80000000e+09    -0.936425  0.279372   0.01507  0.0496872   0.01507  0.0496872   -0.935788  0.281517  
9.90000000e+09    -0.935518  0.282042   0.0153576  0.050131   0.0153576  0.050131   -0.934869  0.284206  
1.00000000e+10    -0.934603  0.284707   0.0156475  0.0505731   0.0156475  0.0505731   -0.933942  0.28689  
1.01000000e+10    -0.933682  0.287368   0.0159398  0.0510134   0.0159398  0.0510134   -0.933008  0.28957  
1.02000000e+10    -0.932753  0.290025   0.0162345  0.0514518   0.0162345  0.0514518   -0.932066  0.292246  
1.03000000e+10    -0.931817  0.292677   0.0165316  0.0518885   0.0165316  0.0518885   -0.931117  0.294917  
1.04000000e+10    -0.930874  0.295325   0.016831  0.0523234   0.016831  0.0523234   -0.930161  0.297584  
1.05000000e+10    -0.929923  0.297969   0.0171328  0.0527564   0.0171328  0.0527564   -0.929198  0.300246  
1.06000000e+10    -0.928966  0.300608   0.0174369  0.0531876   0.0174369  0.0531876   -0.928227  0.302904  
1.07000000e+10    -0.928001  0.303243   0.0177433  0.0536169   0.0177433  0.0536169   -0.927249  0.305558  
1.08000000e+10    -0.927029  0.305873   0.018052  0.0540443   0.018052  0.0540443   -0.926264  0.308207  
1.09000000e+10    -0.92605  0.308499   0.018363  0.0544699   0.018363  0.0544699   -0.925271  0.310851  
1.10000000e+10    -0.925064  0.31112   0.0186763  0.0548936   0.0186763  0.0548936   -0.924272  0.313491  
1.11000000e+10    -0.924072  0.313737   0.0189918  0.0553154   0.0189918  0.0553154   -0.923265  0.316126  
1.12000000e+10    -0.923072  0.31635   0.0193096  0.0557352   0.0193096  0.0557352   -0.922251  0.318757  
1.13000000e+10    -0.922065  0.318958   0.0196296  0.0561532   0.0196296  0.0561532   -0.921231  0.321383  
1.14000000e+10    -0.921051  0.321561   0.0199518  0.0565692   0.0199518  0.0565692   -0.920203  0.324005  
1.15000000e+10    -0.92003  0.32416   0.0202763  0.0569833   0.0202763  0.0569833   -0.919168  0.326622  
1.16000000e+10    -0.919003  0.326755   0.0206029  0.0573954   0.0206029  0.0573954   -0.918127  0.329234  
1.17000000e+10    -0.917969  0.329345   0.0209318  0.0578055   0.0209318  0.0578055   -0.917078  0.331842  
1.18000000e+10    -0.916927  0.33193   0.0212627  0.0582137   0.0212627  0.0582137   -0.916023  0.334445  
1.19000000e+10    -0.91588  0.334511   0.0215959  0.0586199   0.0215959  0.0586199   -0.91496  0.337044  
1.20000000e+10    -0.914825  0.337087   0.0219312  0.0590241   0.0219312  0.0590241   -0.913891  0.339638  
1.21000000e+10    -0.913763  0.339659   0.0222686  0.0594263   0.0222686  0.0594263   -0.912815  0.342227  
1.22000000e+10    -0.912695  0.342226   0.0226082  0.0598264   0.0226082  0.0598264   -0.911732  0.344811  
1.23000000e+10    -0.91162  0.344789   0.0229498  0.0602246   0.0229498  0.0602246   -0.910642  0.347391  
1.24000000e+10    -0.910539  0.347346   0.0232935  0.0606207   0.0232935  0.0606207   -0.909546  0.349966  
1.25000000e+10    -0.909451   0.3499   0.0236394  0.0610147   0.0236394  0.0610147   -0.908443  0.352537  
1.26000000e+10    -0.908356  0.352448   0.0239872  0.0614068   0.0239872  0.0614068   -0.907333  0.355102  
1.27000000e+10    -0.907255  0.354992   0.0243371  0.0617967   0.0243371  0.0617967   -0.906217  0.357663  
1.28000000e+10    -0.906147  0.357531   0.0246891  0.0621846   0.0246891  0.0621846   -0.905094  0.360219  
1.29000000e+10    -0.905033  0.360066   0.0250431  0.0625703   0.0250431  0.0625703   -0.903964  0.362771  
1.30000000e+10    -0.903912  0.362596   0.0253991  0.062954   0.0253991  0.062954   -0.902828  0.365317  
1.31000000e+10    -0.902785  0.365121   0.025757  0.0633356   0.025757  0.0633356   -0.901685  0.367859  
1.32000000e+10    -0.901651  0.367641   0.026117  0.0637151   0.026117  0.0637151   -0.900536  0.370396  
1.33000000e+10    -0.900511  0.370157   0.0264789  0.0640924   0.0264789  0.0640924   -0.89938  0.372928  
1.34000000e+10    -0.899365  0.372668   0.0268428  0.0644676   0.0268428  0.0644676   -0.898217  0.375456  
1.35000000e+10    -0.898212  0.375174   0.0272086  0.0648407   0.0272086  0.0648407   -0.897049  0.377978  
1.36000000e+10    -0.897053  0.377676   0.0275764  0.0652116   0.0275764  0.0652116   -0.895873  0.380496  
1.37000000e+10    -0.895887  0.380172   0.0279461  0.0655804   0.0279461  0.0655804   -0.894692  0.383009  
1.38000000e+10    -0.894715  0.382664   0.0283176  0.065947   0.0283176  0.065947   -0.893504  0.385517  
1.39000000e+10    -0.893537  0.385151   0.0286911  0.0663115   0.0286911  0.0663115   -0.892309  0.38802  
1.40000000e+10    -0.892353  0.387634   0.0290664  0.0666737   0.0290664  0.0666737   -0.891109  0.390518  
1.41000000e+10    -0.891162  0.390111   0.0294435  0.0670338   0.0294435  0.0670338   -0.889902  0.393011  
1.42000000e+10    -0.889966  0.392584   0.0298226  0.0673916   0.0298226  0.0673916   -0.888689   0.3955  
1.43000000e+10    -0.888763  0.395052   0.0302034  0.0677473   0.0302034  0.0677473   -0.887469  0.397983  
1.44000000e+10    -0.887554  0.397515   0.0305861  0.0681007   0.0305861  0.0681007   -0.886243  0.400462  
1.45000000e+10    -0.886338  0.399973   0.0309705  0.068452   0.0309705  0.068452   -0.885011  0.402936  
1.46000000e+10    -0.885117  0.402427   0.0313568  0.0688009   0.0313568  0.0688009   -0.883773  0.405404  
1.47000000e+10    -0.88389  0.404875   0.0317448  0.0691477   0.0317448  0.0691477   -0.882529  0.407868  
1.48000000e+10    -0.882656  0.407319   0.0321346  0.0694922   0.0321346  0.0694922   -0.881278  0.410327  
1.49000000e+10    -0.881417  0.409758   0.0325261  0.0698344   0.0325261  0.0698344   -0.880022  0.41278  
1.50000000e+10    -0.880171  0.412192   0.0329194  0.0701744   0.0329194  0.0701744   -0.878759  0.415229  
1.51000000e+10    -0.87892  0.414621   0.0333143  0.0705121   0.0333143  0.0705121   -0.877491  0.417673  
1.52000000e+10    -0.877662  0.417045   0.033711  0.0708476   0.033711  0.0708476   -0.876216  0.420112  
1.53000000e+10    -0.876399  0.419464   0.0341094  0.0711807   0.0341094  0.0711807   -0.874935  0.422546  
1.54000000e+10    -0.87513  0.421878   0.0345094  0.0715116   0.0345094  0.0715116   -0.873648  0.424974  
1.55000000e+10    -0.873854  0.424287   0.0349111  0.0718401   0.0349111  0.0718401   -0.872356  0.427398  
1.56000000e+10    -0.872573  0.426692   0.0353145  0.0721664   0.0353145  0.0721664   -0.871057  0.429817  
1.57000000e+10    -0.871286  0.429091   0.0357194  0.0724903   0.0357194  0.0724903   -0.869752  0.432231  
1.58000000e+10    -0.869994  0.431486   0.036126  0.072812   0.036126  0.072812   -0.868442  0.434639  
1.59000000e+10    -0.868695  0.433875   0.0365342  0.0731313   0.0365342  0.0731313   -0.867125  0.437043  
1.60000000e+10    -0.867391  0.436259   0.036944  0.0734482   0.036944  0.0734482   -0.865803  0.439441  
1.61000000e+10    -0.86608  0.438639   0.0373554  0.0737629   0.0373554  0.0737629   -0.864475  0.441834  
1.62000000e+10    -0.864764  0.441013   0.0377683  0.0740751   0.0377683  0.0740751   -0.863141  0.444223  
1.63000000e+10    -0.863443  0.443383   0.0381828  0.0743851   0.0381828  0.0743851   -0.861801  0.446606  
1.64000000e+10    -0.862116  0.445747   0.0385988  0.0746926   0.0385988  0.0746926   -0.860456  0.448984  
1.65000000e+10    -0.860782  0.448107   0.0390163  0.0749978   0.0390163  0.0749978   -0.859104  0.451357  
1.66000000e+10    -0.859444  0.450461   0.0394353  0.0753007   0.0394353  0.0753007   -0.857747  0.453724  
1.67000000e+10    -0.858099  0.45281   0.0398558  0.0756011   0.0398558  0.0756011   -0.856385  0.456087  
1.68000000e+10    -0.85675  0.455155   0.0402778  0.0758992   0.0402778  0.0758992   -0.855016  0.458444  
1.69000000e+10    -0.855394  0.457494   0.0407013  0.0761948   0.0407013  0.0761948   -0.853642  0.460797  
1.70000000e+10    -0.854033  0.459828   0.0411262  0.0764881   0.0411262  0.0764881   -0.852263  0.463144  
1.71000000e+10    -0.852666  0.462157   0.0415525  0.076779   0.0415525  0.076779   -0.850877  0.465486  
1.72000000e+10    -0.851294  0.464481   0.0419802  0.0770675   0.0419802  0.0770675   -0.849486  0.467823  
1.73000000e+10    -0.849916   0.4668   0.0424094  0.0773535   0.0424094  0.0773535   -0.84809  0.470154  
1.74000000e+10    -0.848533  0.469114   0.0428399  0.0776372   0.0428399  0.0776372   -0.846688  0.47248  
1.75000000e+10    -0.847144  0.471423   0.0432718  0.0779184   0.0432718  0.0779184   -0.84528  0.474802  
1.76000000e+10    -0.84575  0.473726   0.043705  0.0781972   0.043705  0.0781972   -0.843867  0.477117  
1.77000000e+10    -0.844351  0.476024   0.0441397  0.0784735   0.0441397  0.0784735   -0.842448  0.479428  
1.78000000e+10    -0.842946  0.478318   0.0445756  0.0787475   0.0445756  0.0787475   -0.841024  0.481733  
1.79000000e+10    -0.841535  0.480606   0.0450128  0.0790189   0.0450128  0.0790189   -0.839595  0.484034  
1.80000000e+10    -0.84012  0.482889   0.0454514  0.0792879   0.0454514  0.0792879   -0.83816  0.486329  
1.81000000e+10    -0.838699  0.485167   0.0458912  0.0795545   0.0458912  0.0795545   -0.83672  0.488618  
